(1763740769.248550) can0 208#00003C0001C80000
(1763740769.258600) can0 209#001020C000081000
(1763740769.268550) can0 210#0000F401AAAAAAAA
(1763740769.278550) can0 208#00003C0001C80000
(1763740769.288550) can0 209#001020C000081000
(1763740769.298550) can0 210#0000F401AAAAAAAA
(1763740769.305100) can0 560#0000400082000200
(1763740769.305350) can0 5E0#6000000000016101
(1763740769.308550) can0 208#00003C0001C80000
(1763740769.313250) can0 6C0#8772A97040209843
(1763740769.318550) can0 209#001020C000081000
(1763740769.321300) can0 561#0200905E00000000
(1763740769.321600) can0 761#0200000000000000
(1763740769.322350) can0 581#005E270000260000
(1763740769.322550) can0 5A1#0000000000000000
(1763740769.324300) can0 361#110000000034A200
(1763740769.324550) can0 3A1#004100800C000000
(1763740769.325350) can0 081#410005145D400000
(1763740769.325600) can0 0A1#0000000000000034
(1763740769.326300) can0 201#801000853CD80067
(1763740769.326550) can0 241#0228010000000000
(1763740769.328550) can0 210#0000F401AAAAAAAA
(1763740769.332100) can0 0CC#400700FFDE
(1763740769.334350) can0 361#110000003434A200
(1763740769.334600) can0 3A1#0041008006000000
(1763740769.335350) can0 081#410005145DC03400
(1763740769.335550) can0 0A1#3463B14034003434
(1763740769.336350) can0 201#801000853CD80067
(1763740769.336600) can0 241#0228280000000000
(1763740769.338550) can0 208#00003C0001C80000
(1763740769.341700) can0 0AF#0CFC100000000000
(1763740769.342100) can0 0CC#510700FFDE
(1763740769.344350) can0 361#110000003434A200
(1763740769.344600) can0 3A1#0041008006000000
(1763740769.345350) can0 081#410005145DC03400
(1763740769.345600) can0 0A1#3463B14034003434
(1763740769.346350) can0 201#801000853CD80067
(1763740769.346600) can0 241#0228280000000000
(1763740769.346850) can0 586#0500340000000000
(1763740769.347100) can0 566#0000000080000000
(1763740769.347350) can0 1A6#0000000000000000
(1763740769.347600) can0 186#8000080000808000
(1763740769.347850) can0 166#E000E000E000E000
(1763740769.348050) can0 146#00FF0002FF000400
(1763740769.348350) can0 046#1004022080000000
(1763740769.348550) can0 209#001020C000081000
(1763740769.352100) can0 0CC#620700FFDE
(1763740769.354350) can0 361#110000003434A200
(1763740769.354600) can0 3A1#0041008007000000
(1763740769.355400) can0 081#410005145DC03400
(1763740769.355600) can0 0A1#3460AC4034003434
(1763740769.356400) can0 201#801000853CD80067
(1763740769.356650) can0 241#0228280000000000
(1763740769.358550) can0 210#0000F401AAAAAAAA
(1763740769.362100) can0 0CC#730700FFDE
(1763740769.365400) can0 361#110000003434A200
(1763740769.365650) can0 3A1#0041008008000000
(1763740769.366400) can0 081#410005145DC03400
(1763740769.366650) can0 0A1#3460AC4034003434
(1763740769.366900) can0 1A6#0000000000000000
(1763740769.367150) can0 186#8000080000808000
(1763740769.367350) can0 166#E000E000E000E000
(1763740769.367600) can0 146#00FF0004FF000400
(1763740769.367850) can0 046#1004012080000000
(1763740769.368100) can0 201#801000853CD80067
(1763740769.368350) can0 241#0228280000000000
(1763740769.368600) can0 208#00003C0001C60000
(1763740769.372100) can0 0CC#040700FFDE
(1763740769.375450) can0 361#116000003434A200
(1763740769.375650) can0 3A1#0041008014000000
(1763740769.376400) can0 561#0200905E00000000
(1763740769.376650) can0 081#410005145DC03400
(1763740769.376900) can0 221#801000853CD80067
(1763740769.377150) can0 261#0229010100000000
(1763740769.377400) can0 0A1#34C0AC4034B43434
(1763740769.377650) can0 5A1#0000000000000000
(1763740769.378400) can0 201#801000853CD80067
(1763740769.378650) can0 209#001020C000081000
(1763740769.378900) can0 241#0228280000000000
(1763740769.382100) can0 0CC#150700FFDE
(1763740769.385450) can0 361#11C300003434A200
(1763740769.385700) can0 3A1#004100801F000000
(1763740769.386450) can0 081#410005145DC03400
(1763740769.386650) can0 0A1#34C3B14034B43434
(1763740769.386900) can0 1A6#0000000000000000
(1763740769.387150) can0 186#8000080000808000
(1763740769.387400) can0 166#E000E000E000E000
(1763740769.387650) can0 146#00FF0006FF000400
(1763740769.387900) can0 046#1004012080000000
(1763740769.388100) can0 201#801000853CD80067
(1763740769.388350) can0 241#0228280000000000
(1763740769.388600) can0 210#0000F401AAAAAAAA
(1763740769.392100) can0 0CC#260700FFDE
(1763740769.395450) can0 361#11C600003434A200
(1763740769.395700) can0 3A1#0041008026000000
(1763740769.396450) can0 081#410005145DC03400
(1763740769.396650) can0 0A1#34C6B14034B43434
(1763740769.397450) can0 201#801000853CD80067
(1763740769.397700) can0 241#0228280000000000
(1763740769.398600) can0 208#00003C0001C60000
(1763740769.399500) can0 761#0200000000000000
(1763740769.399700) can0 221#801000853CD80067
(1763740769.399950) can0 261#0229010100000000
(1763740769.400200) can0 581#005E270000260000
(1763740769.402100) can0 0CC#370700FFDE
(1763740769.403350) can0 560#0000400082000200
(1763740769.403600) can0 5E0#6000000000016101
(1763740769.404450) can0 361#11C600003434A200
(1763740769.404700) can0 3A1#004100802A000000
(1763740769.405450) can0 081#410005145DC03400
(1763740769.405700) can0 0A1#34C6B14034B43434
(1763740769.406450) can0 201#801000853CD80067
(1763740769.406700) can0 241#0228280000000000
(1763740769.407000) can0 1A6#0000000000000000
(1763740769.407250) can0 186#8000080000808000
(1763740769.407450) can0 166#E000E000E000E000
(1763740769.407700) can0 146#00FF0008FF000400
(1763740769.407950) can0 046#5004010080000000
(1763740769.408550) can0 209#001020C000081000
(1763740769.411700) can0 0AF#B8FC800000000000
(1763740769.412100) can0 0CC#C80700FFDE
(1763740769.414450) can0 361#11C600003434A200
(1763740769.414700) can0 3A1#004100802D000000
(1763740769.415500) can0 081#410005145DC03400
(1763740769.415700) can0 0A1#34C6B14034B43434
(1763740769.416500) can0 201#801000853CD80067
(1763740769.416750) can0 241#0228280000000000
(1763740769.418600) can0 210#0000F401AAAAAAAA
(1763740769.421900) can0 0AF#ACFC900000000000
(1763740769.422100) can0 0CC#D90700FFDE
(1763740769.425500) can0 361#11C600003434A200
(1763740769.425700) can0 3A1#004100802C000000
(1763740769.426500) can0 081#410005145DC03400
(1763740769.426750) can0 0A1#34C6B14034B43434
(1763740769.426950) can0 1A6#0000000000000000
(1763740769.427200) can0 186#8000080000808000
(1763740769.427450) can0 166#E000E000E000E000
(1763740769.427700) can0 146#00FF000AFF000400
(1763740769.427950) can0 046#5004010080000000
(1763740769.428200) can0 201#801000853CD80067
(1763740769.428450) can0 5A1#0000000000000000
(1763740769.428700) can0 208#00003C0001C60000
(1763740769.428900) can0 221#801000853CD80067
(1763740769.429150) can0 241#0228280000000000
(1763740769.429400) can0 261#0229010100000000
(1763740769.429650) can0 6EF#0020CE08A19A3827
(1763740769.430500) can0 561#0200905E00000000
(1763740769.431900) can0 0AF#90FCA00000000000
(1763740769.432100) can0 0CC#EA0700FFDE
(1763740769.435500) can0 361#11C600003434A200
(1763740769.435750) can0 3A1#004100802A000000
(1763740769.436500) can0 081#410005145DC03400
(1763740769.436750) can0 0A1#34C6B14034B43434
(1763740769.437550) can0 201#801000853CD80067
(1763740769.437750) can0 241#0228280000000000
(1763740769.438550) can0 209#001020C000081000
(1763740769.441950) can0 0AF#84FCB00000000000
(1763740769.442100) can0 0CC#FB0700FFDE
(1763740769.445550) can0 361#11C600003434A200
(1763740769.445750) can0 3A1#0041008026000000
(1763740769.446550) can0 081#410005145DC03400
(1763740769.446800) can0 0A1#34C6B14034B43434
(1763740769.447000) can0 586#05C6340000000000
(1763740769.447250) can0 566#0000800080000000
(1763740769.447500) can0 1A6#0000000000000000
(1763740769.447750) can0 186#8000080000808000
(1763740769.447950) can0 166#E000E000E000E000
(1763740769.448200) can0 146#00FF000CFF000400
(1763740769.448450) can0 046#5004010080000000
(1763740769.448700) can0 201#801000853CD80067
(1763740769.448950) can0 210#0000F401AAAAAAAA
(1763740769.449200) can0 241#0228280000000000
(1763740769.449450) can0 6EF#08200000009218E5
(1763740769.451950) can0 0AF#D00CC7F67D100000
(1763740769.452100) can0 0CC#8C0700FFDE
(1763740769.455550) can0 361#11C600003434A200
(1763740769.455800) can0 3A1#0041008022000000
(1763740769.456550) can0 081#410005145DC03400
(1763740769.456800) can0 0A1#34C6B14034B43434
(1763740769.457550) can0 201#801000853CD80067
(1763740769.457800) can0 241#0228280000000000
(1763740769.458600) can0 208#00003C0001C60000
(1763740769.461950) can0 0AF#DC0CD8057DB00000
(1763740769.462150) can0 0CC#9D0700FFDE
(1763740769.465550) can0 361#11C600003434A200
(1763740769.465800) can0 3A1#004100801D000000
(1763740769.466600) can0 081#410005145DC03400
(1763740769.466800) can0 0A1#34C6B14034B43434
(1763740769.467050) can0 1A6#0000000000000000
(1763740769.467300) can0 186#800007CF00808000
(1763740769.467550) can0 166#E000E000E000E000
(1763740769.467750) can0 146#00FF000EFF000400
(1763740769.468000) can0 046#5004020080000000
(1763740769.468250) can0 201#801000853CD80067
(1763740769.468500) can0 241#0228280000000000
(1763740769.468750) can0 209#001020C000081000
(1763740769.469000) can0 04B#FFC1FFE000FE0020
(1763740769.469200) can0 6EF#00218A38A6927865
(1763740769.469450) can0 06B#0020040000000000
(1763740769.469750) can0 159#0000000000000000
(1763740769.470000) can0 20B#0019000000000000
(1763740769.470300) can0 22B#0100000000000000
(1763740769.470500) can0 24B#0000000000000000
(1763740769.470800) can0 56B#0008600400000000
(1763740769.470950) can0 57E#0000
(1763740769.471950) can0 0AF#9F0CE80C7E200000
(1763740769.472150) can0 0CC#AE0701FFDF
(1763740769.475600) can0 361#11C600003434A200
(1763740769.475850) can0 3A1#0041008018200000
(1763740769.476600) can0 561#0200905E00000000
(1763740769.476850) can0 081#410005145DC03400
(1763740769.477550) can0 0A1#34C6B14034B43434
(1763740769.477800) can0 221#801000853CD80067
(1763740769.478050) can0 261#0229010100000000
(1763740769.478300) can0 5A1#0000000000000000
(1763740769.478600) can0 210#0000F401AAAAAAAA
(1763740769.478800) can0 04B#FFC2FFA000FD0020
(1763740769.479050) can0 201#801000853CD80067
(1763740769.479300) can0 06B#0020040000000000
(1763740769.479550) can0 241#0228280000000000
(1763740769.479800) can0 20B#0019000000000000
(1763740769.480050) can0 22B#0100000000000000
(1763740769.480300) can0 24B#0000000000000000
(1763740769.481950) can0 0AF#A90CF80D7E500000
(1763740769.482100) can0 0CC#AF0701FFDE
(1763740769.485600) can0 361#11C600003434A200
(1763740769.485850) can0 3A1#0041008012200000
(1763740769.486600) can0 081#410005145DC03400
(1763740769.486800) can0 0A1#34C6B14034B43434
(1763740769.487100) can0 1A6#0000000000000000
(1763740769.487300) can0 186#800007DD00808000
(1763740769.487550) can0 166#E000E000E000E000
(1763740769.487800) can0 146#00FF0000FF000400
(1763740769.488050) can0 046#5004020080000000
(1763740769.488300) can0 201#801000853CD80067
(1763740769.488550) can0 241#0228280000000000
(1763740769.488750) can0 04B#FFC3FF6000FC0020
(1763740769.489000) can0 208#00003C0001C60000
(1763740769.489250) can0 06B#0020040000000000
(1763740769.489500) can0 6EF#0821000000000000
(1763740769.489800) can0 159#0000000000000000
(1763740769.490000) can0 20B#0019000000000000
(1763740769.490300) can0 22B#0100000000000000
(1763740769.490550) can0 24B#0000000000000000
(1763740769.491950) can0 0AF#1C0C080B7E400000
(1763740769.492150) can0 0CC#400700FFDE
(1763740769.495600) can0 361#11C600003434A200
(1763740769.495850) can0 3A1#004100800D200000
(1763740769.496600) can0 081#410005145DC03400
(1763740769.496850) can0 0A1#34C6B14034B43434
(1763740769.497600) can0 201#801000853CD80067
(1763740769.497850) can0 241#0228280000000000
(1763740769.498600) can0 209#001020C000081000
(1763740769.498850) can0 04B#FFC4FF2000FB0020
(1763740769.499100) can0 06B#0020040000000000
(1763740769.499350) can0 20B#0019000000000000
(1763740769.499650) can0 22B#0100000000000000
(1763740769.499900) can0 581#005E270000260000
(1763740769.500100) can0 24B#0000000000000000
(1763740769.500350) can0 761#0202000000000000
(1763740769.500800) can0 221#801000853CD80067
(1763740769.501050) can0 261#0229010100000000
(1763740769.501650) can0 560#0000400082000200
(1763740769.501900) can0 5E0#6000000000016101
(1763740769.502150) can0 0AF#FE0C18087E300000
(1763740769.502300) can0 0CC#510700FFDE
(1763740769.505600) can0 361#11C600003434A200
(1763740769.505850) can0 3A1#004100800A200000
(1763740769.506650) can0 081#410005145DC03400
(1763740769.506850) can0 0A1#34C6B14034B43434
(1763740769.507100) can0 1A6#0000000000000000
(1763740769.507350) can0 186#800007D900808000
(1763740769.507600) can0 166#E000E000E000E000
(1763740769.507850) can0 146#00FF0002FF000400
(1763740769.508100) can0 046#5004020080000000
(1763740769.508350) can0 201#801000853CD80067
(1763740769.508600) can0 241#0228280000000000
(1763740769.508800) can0 04B#FFC5FEE000FA0020
(1763740769.509050) can0 210#0000F401AAAAAAAA
(1763740769.509300) can0 06B#0020040000000000
(1763740769.509500) can0 6EF#00229A58209668A0
(1763740769.509750) can0 159#0000000000000000
(1763740769.510050) can0 20B#0019000000000000
(1763740769.510300) can0 22B#0100000000000000
(1763740769.510550) can0 24B#0000000000000000
(1763740769.511950) can0 0AF#A60C28077E200000
(1763740769.512100) can0 0CC#620700FFDE
(1763740769.515650) can0 361#11C600003434A200
(1763740769.515850) can0 3A1#0041008009200000
(1763740769.516650) can0 081#410005145DC03400
(1763740769.516900) can0 0A1#34C6B14034B43434
(1763740769.517650) can0 201#801000853CD80067
(1763740769.517900) can0 241#0228280000000000
(1763740769.518500) can0 04B#FFC6FEA000F90020
(1763740769.518750) can0 208#00003C0001C60000
(1763740769.519000) can0 06B#0020040000000000
(1763740769.519250) can0 20B#0019000000000000
(1763740769.519550) can0 22B#0100000000000000
(1763740769.519800) can0 24B#0000000000000000
(1763740769.522100) can0 0AF#AA0C38077E300000
(1763740769.522300) can0 0CC#730700FFDE
(1763740769.525650) can0 361#11C600003434A200
(1763740769.525900) can0 3A1#004100800A200000
(1763740769.526650) can0 081#410005145DC03400
(1763740769.526900) can0 0A1#34C6B14034B43434
(1763740769.527150) can0 1A6#0000000000000000
(1763740769.527400) can0 186#800007D900808000
(1763740769.527600) can0 166#E000E000E000E000
(1763740769.527850) can0 146#00FF0004FF000400
(1763740769.528100) can0 046#5004020080000000
(1763740769.528350) can0 201#801000853CD80067
(1763740769.528600) can0 04B#FFC7FE6000F80020
(1763740769.528850) can0 209#001020C000081000
(1763740769.529100) can0 06B#0020040000000000
(1763740769.529350) can0 221#801000853CD80067
(1763740769.529550) can0 159#0000000000000000
(1763740769.529800) can0 241#0228280000000000
(1763740769.530050) can0 20B#0019000000000000
(1763740769.530300) can0 261#0229010100000000
(1763740769.530550) can0 22B#0100000000000000
(1763740769.530800) can0 561#0200905E00000000
(1763740769.531050) can0 24B#0000000000000000
(1763740769.531300) can0 5A1#0000000000000000
(1763740769.531500) can0 6EF#08220000000009A1
(1763740769.532050) can0 0AF#C60C48077E300000
(1763740769.532300) can0 0CC#040700FFDE
(1763740769.535700) can0 361#01C600003434A200
(1763740769.535900) can0 3A1#004100800A200000
(1763740769.536700) can0 081#410005145DC03400
(1763740769.536950) can0 0A1#34C6B14034B43434
(1763740769.537700) can0 201#801000853CD80067
(1763740769.537950) can0 241#0228280000000000
(1763740769.538350) can0 04B#FFC8FE2000F70020
(1763740769.538550) can0 210#0000F401AAAAAAAA
(1763740769.538800) can0 06B#0020040000000000
(1763740769.539100) can0 20B#0019000000000000
(1763740769.539350) can0 22B#0100000000000000
(1763740769.539600) can0 24B#0000000000000000
(1763740769.542100) can0 0AF#B80C58067E300000
(1763740769.542250) can0 0CC#150700FFDE
(1763740769.545700) can0 361#01C600003434A200
(1763740769.545950) can0 3A1#004100800A200000
(1763740769.546700) can0 586#05C6347FA000081D
(1763740769.546950) can0 081#410005145DC03400
(1763740769.547150) can0 0A1#34C6B14034B43434
(1763740769.547400) can0 566#0000800080000000
(1763740769.547650) can0 1A6#0000000000000000
(1763740769.547900) can0 186#800007D900808000
(1763740769.548150) can0 166#E000E000E000E000
(1763740769.548350) can0 04B#FFC9FDE000F60020
(1763740769.548600) can0 146#00FF0006FF000400
(1763740769.548850) can0 046#5004020080000000
(1763740769.549100) can0 06B#0020040000000000
(1763740769.549350) can0 201#801000853CD80067
(1763740769.549600) can0 159#0000000000000000
(1763740769.549850) can0 208#00003C0001C60000
(1763740769.550100) can0 20B#0019000000000000
(1763740769.550300) can0 241#0228280000000000
(1763740769.550600) can0 22B#0100000000000000
(1763740769.550800) can0 6EF#0023000000860820
(1763740769.551100) can0 24B#0000000000000000
(1763740769.552100) can0 0AF#950068077E280300
(1763740769.552300) can0 0CC#260700FFDE
(1763740769.555700) can0 361#01C600003434A200
(1763740769.555950) can0 3A1#004100800A200000
(1763740769.556750) can0 081#410005145DC03400
(1763740769.556950) can0 0A1#34C6B14034B43434
(1763740769.557050) can0 56C#00
(1763740769.557700) can0 201#801000853CD80067
(1763740769.557950) can0 241#0228280000000000
(1763740769.558200) can0 04B#FFCAFDA000F50020
(1763740769.558450) can0 06B#0020040000000000
(1763740769.558700) can0 209#001020C000081000
(1763740769.558950) can0 20B#0019000000000000
(1763740769.559250) can0 22B#0100000000000000
(1763740769.559500) can0 24B#0000000000000000
(1763740769.562050) can0 0CC#370700FFDE
(1763740769.562300) can0 0AF#190078077E280100
(1763740769.565750) can0 361#01C600003434A200
(1763740769.566000) can0 3A1#004100800A200000
(1763740769.566750) can0 1A6#0000000000000000
(1763740769.567000) can0 081#410005145DC03400
(1763740769.567200) can0 0A1#34C6B14034B43434
(1763740769.567450) can0 186#800007D700808000
(1763740769.567700) can0 166#E000E000E000E000
(1763740769.567950) can0 146#00FF0008FF000400
(1763740769.568200) can0 046#5004010080000000
(1763740769.568400) can0 04B#FFCBFD6000F40020
(1763740769.568650) can0 201#801000853CD80067
(1763740769.568900) can0 06B#0020040000000000
(1763740769.569100) can0 210#0000F401AAAAAAAA
(1763740769.569350) can0 159#0000000000000000
(1763740769.569600) can0 241#0228280000000000
(1763740769.569900) can0 20B#0019000000000000
(1763740769.570100) can0 6EF#0024A20862CD3499
(1763740769.570350) can0 22B#0100000000000000
(1763740769.570600) can0 24B#0000000000000000
(1763740769.570900) can0 56B#0008600400000000
(1763740769.571050) can0 57E#0000
(1763740769.572050) can0 0CC#C80700FFDE
(1763740769.572250) can0 0AF#F30088067E280000
(1763740769.575750) can0 361#01C600003418A200
(1763740769.576000) can0 3A1#004100800A200000
(1763740769.576750) can0 561#0200905E00000000
(1763740769.577000) can0 081#410005145DC03400
(1763740769.577750) can0 0A1#34C6B14034B43418
(1763740769.577950) can0 221#801000853CD80067
(1763740769.578200) can0 04B#FFCCFD2000F30020
(1763740769.578450) can0 261#0229010100000000
(1763740769.578700) can0 06B#0020040000000000
(1763740769.578950) can0 201#801000853CD80067
(1763740769.579200) can0 208#00003C0001C60000
(1763740769.579450) can0 20B#0019000000000000
(1763740769.579700) can0 5A1#0000000000000000
(1763740769.579950) can0 22B#0100000000000000
(1763740769.580150) can0 241#0228280000000000
(1763740769.580450) can0 24B#0000000000000000
(1763740769.582050) can0 0CC#D90700FFDE
(1763740769.582300) can0 0AF#4A0098077E27FF00
(1763740769.585750) can0 361#01C600003418A200
(1763740769.586050) can0 3A1#004100800A200000
(1763740769.586650) can0 1A6#0000000000000000
(1763740769.586900) can0 081#410005145DC03400
(1763740769.587150) can0 0A1#34C6B14034B43418
(1763740769.587350) can0 186#800007D700808000
(1763740769.587600) can0 166#E000E000E000E000
(1763740769.587850) can0 146#00FF000AFF000400
(1763740769.588100) can0 046#500402007FF00000
(1763740769.588350) can0 04B#FFCDFCE000F20020
(1763740769.588550) can0 201#801000853CD80067
(1763740769.588850) can0 06B#0020040000000000
(1763740769.589100) can0 209#001020C000081000
(1763740769.589300) can0 159#0000000000000000
(1763740769.589550) can0 241#0228280000000000
(1763740769.589800) can0 20B#0019000000000000
(1763740769.590050) can0 6EF#08240000298A0CE3
(1763740769.590300) can0 22B#0100000000000000
(1763740769.590550) can0 24B#0000000000000000
(1763740769.592050) can0 0CC#EA0700FFDE
(1763740769.592300) can0 0AF#B100A8077E280000
(1763740769.595750) can0 361#01C600001818A200
(1763740769.596000) can0 3A1#004100800A200000
(1763740769.596750) can0 081#410005145DC01800
(1763740769.597000) can0 0A1#18C6B14018B41818
(1763740769.597800) can0 201#801000853CD80067
(1763740769.598000) can0 04B#FFCEFCA000F10020
(1763740769.598250) can0 241#0228280000000000
(1763740769.598500) can0 06B#0020040000000000
(1763740769.598750) can0 210#0000F401AAAAAAAA
(1763740769.599000) can0 20B#0019000000000000
(1763740769.599250) can0 22B#0100000000000000
(1763740769.599550) can0 24B#0000000000000000
(1763740769.599800) can0 761#0202000000000000
(1763740769.600050) can0 560#0000400082000200
(1763740769.600300) can0 581#005E260000260000
(1763740769.600550) can0 5E0#6000000000016101
(1763740769.600950) can0 221#801000853CD80067
(1763740769.601200) can0 261#0229010100000000
(1763740769.602050) can0 0CC#FB0700FFDE
(1763740769.602250) can0 0AF#A500B8077E280000
(1763740769.605800) can0 361#01C600001818A200
(1763740769.606050) can0 3A1#004100800A200000
(1763740769.606700) can0 1A6#0000000000000000
(1763740769.606950) can0 081#410005145DC01800
(1763740769.607200) can0 0A1#18C6B14018B41818
(1763740769.607400) can0 186#800007D700808000
(1763740769.607650) can0 166#002C002C002C002C
(1763740769.607900) can0 04B#FFCFFC6000F00020
(1763740769.608150) can0 146#00FF000CFF000400
(1763740769.608400) can0 046#5004010080000000
(1763740769.608650) can0 06B#0020040000000000
(1763740769.608900) can0 201#801000853CD80067
(1763740769.609150) can0 159#0000000000000000
(1763740769.609400) can0 208#00003C0001C60000
(1763740769.609600) can0 20B#0019000000000000
(1763740769.609850) can0 241#0228280000000000
(1763740769.610100) can0 22B#0100000000000000
(1763740769.610350) can0 6EF#0025000000820820
(1763740769.610600) can0 24B#0000000000000000
(1763740769.612050) can0 0CC#8C0700FFDE
(1763740769.612250) can0 0AF#8B00C8067E180000
(1763740769.615800) can0 361#01C600001818A200
(1763740769.616050) can0 3A1#004100800A200000
(1763740769.616800) can0 081#410005145DC01800
(1763740769.617050) can0 0A1#18C6B14018B41818
(1763740769.617700) can0 04B#FFC0002000FF0020
(1763740769.617950) can0 201#801000853CD80067
(1763740769.618200) can0 06B#0020040000000000
(1763740769.618450) can0 241#0228280000000000
(1763740769.618700) can0 209#001020C000081000
(1763740769.618950) can0 20B#0019000000000000
(1763740769.619200) can0 22B#0100000000000000
(1763740769.619450) can0 24B#0000000000000000
(1763740769.622050) can0 0CC#9D0700FFDE
(1763740769.622250) can0 0AF#2100D8057E180000
(1763740769.625800) can0 361#01C600001818A200
(1763740769.626050) can0 3A1#004100800A200000
(1763740769.626750) can0 1A6#0000000000000000
(1763740769.627000) can0 081#410005145DC01800
(1763740769.627250) can0 0A1#18C6B14018B41818
(1763740769.627450) can0 186#800007D700808000
(1763740769.627700) can0 04B#FFC1FFE000FE0020
(1763740769.627950) can0 166#002C002C002C002C
(1763740769.628200) can0 06B#0020040000000000
(1763740769.628450) can0 146#00FF000EFF000400
(1763740769.628700) can0 046#5004020080000000
(1763740769.628950) can0 159#0000000000000000
(1763740769.629200) can0 201#801000853CD80067
(1763740769.629450) can0 20B#0019000000000000
(1763740769.629650) can0 210#0000F401AAAAAAAA
(1763740769.629900) can0 221#801000853CD80067
(1763740769.630150) can0 22B#0100000000000000
(1763740769.630400) can0 241#0228280000000000
(1763740769.630650) can0 24B#0000000000000000
(1763740769.630900) can0 261#0229010100000000
(1763740769.631150) can0 561#0200905E00000000
(1763740769.631400) can0 5A1#0000000000000000
(1763740769.631600) can0 6EF#00260000008E98A1
(1763740769.632000) can0 0CC#AE0700FFDE
(1763740769.632250) can0 0AF#3500E8057E280000
(1763740769.635850) can0 361#01C600001818A200
(1763740769.636100) can0 3A1#004100800A200000
(1763740769.636850) can0 081#410005145DC01800
(1763740769.637100) can0 0A1#18C6B14018B41818
(1763740769.637550) can0 04B#FFC2FFA000FD0020
(1763740769.637850) can0 06B#0020040000000000
(1763740769.638050) can0 201#801000853CD80067
(1763740769.638350) can0 20B#0019000000000000
(1763740769.638600) can0 241#0228280000000000
(1763740769.638800) can0 208#00003C0001C60000
(1763740769.639050) can0 22B#0100000000000000
(1763740769.639350) can0 24B#0000000000000000
(1763740769.642050) can0 0CC#BF0700FFDE
(1763740769.642250) can0 0AF#2100F8057E280000
(1763740769.645850) can0 361#01C600001818A200
(1763740769.646100) can0 3A1#004100800A200000
(1763740769.646700) can0 586#05C6187FB000081E
(1763740769.646950) can0 081#410005145DC01800
(1763740769.647150) can0 0A1#18C6B14018B41818
(1763740769.647400) can0 566#0000800000000000
(1763740769.647650) can0 04B#FFC3FF6000FC0020
(1763740769.647900) can0 1A6#0000000000000000
(1763740769.648150) can0 06B#0020040000000000
(1763740769.648400) can0 186#800007D700808000
(1763740769.648650) can0 159#0000000000000000
(1763740769.648900) can0 166#002C002C002C002C
(1763740769.649150) can0 146#00FF0000FF000000
(1763740769.649400) can0 046#5004010080000000
(1763740769.649650) can0 201#801000853CD80067
(1763740769.649850) can0 209#001020C000081000
(1763740769.650100) can0 20B#0019000000000000
(1763740769.650350) can0 241#0228280000000000
(1763740769.650600) can0 22B#0100000000000000
(1763740769.650800) can0 6EF#0027861CA1872821
(1763740769.651100) can0 24B#0000000000000000
(1763740769.652050) can0 0CC#400700FFDE
(1763740769.652250) can0 0AF#530008067E280000
(1763740769.655900) can0 361#01C600001818A200
(1763740769.656150) can0 3A1#004100800A200000
(1763740769.656900) can0 081#410005145DC01800
(1763740769.657100) can0 0A1#18C6B14018B41818
(1763740769.657400) can0 04B#FFC4FF2000FB0020
(1763740769.657700) can0 06B#0020040000000000
(1763740769.657950) can0 201#801000853CD80067
(1763740769.658150) can0 20B#0019000000000000
(1763740769.658400) can0 241#0228280000000000
(1763740769.658650) can0 210#0000F401AAAAAAAA
(1763740769.658900) can0 22B#0100000000000000
(1763740769.659200) can0 24B#0000000000000000
(1763740769.662000) can0 0CC#510700FFDE
(1763740769.662250) can0 0AF#5F0018067E380000
(1763740769.665900) can0 361#01C600001818A200
(1763740769.666150) can0 3A1#004100800A200000
(1763740769.666800) can0 1A6#0000000000000000
(1763740769.667000) can0 081#410005145DC01800
(1763740769.667250) can0 0A1#18C6B14018B41818
(1763740769.667500) can0 04B#FFC5FEE000FA0020
(1763740769.667700) can0 186#800007D900808000
(1763740769.667950) can0 06B#0020040000000000
(1763740769.668200) can0 166#002C002C002C002C
(1763740769.668450) can0 146#00FF0002FF000000
(1763740769.668700) can0 046#5004010080000000
(1763740769.668950) can0 159#0000000000000000
(1763740769.669200) can0 201#801000853CD80067
(1763740769.669450) can0 208#00003C0001C60000
(1763740769.669700) can0 20B#0019000000000000
(1763740769.669900) can0 241#0228280000000000
(1763740769.670150) can0 22B#0100000000000000
(1763740769.670400) can0 6EF#0827000000000000
(1763740769.670700) can0 24B#0000000000000000
(1763740769.670950) can0 56B#0008600400000000
(1763740769.671100) can0 57E#0000
(1763740769.672050) can0 0CC#620700FFDE
(1763740769.672250) can0 0AF#630028067E380000
(1763740769.675900) can0 361#01C600001818A200
(1763740769.676150) can0 3A1#004100800A200000
(1763740769.676900) can0 561#0200905E00000000
(1763740769.677150) can0 081#410005145DC01800
(1763740769.677400) can0 04B#FFC6FEA000F90020
(1763740769.677650) can0 06B#0020040000000000
(1763740769.677900) can0 20B#0019000000000000
(1763740769.678150) can0 0A1#18C6B14018B41818
(1763740769.678400) can0 221#801000853CD80067
(1763740769.678650) can0 209#001020C000081000
(1763740769.678900) can0 22B#0100000000000000
(1763740769.679150) can0 201#801000853CD80067
(1763740769.679400) can0 24B#0000000000000000
(1763740769.679650) can0 261#0229010100000000
(1763740769.679850) can0 5A1#0000000000000000
(1763740769.680100) can0 241#0228280000000000
(1763740769.682000) can0 0CC#730700FFDE
(1763740769.682250) can0 0AF#1D0038077E380000
(1763740769.685900) can0 361#01C600001818A200
(1763740769.686200) can0 3A1#004100800A200000
(1763740769.686700) can0 1A6#0000000000000000
(1763740769.686950) can0 081#410005145DC01800
(1763740769.687200) can0 04B#FFC7FE6000F80020
(1763740769.687450) can0 0A1#18C6B14018B41818
(1763740769.687700) can0 06B#0020040000000000
(1763740769.687950) can0 186#800007D900808000
(1763740769.688150) can0 159#0000000000000000
(1763740769.688400) can0 166#002C002C002C002C
(1763740769.688650) can0 146#00FF0004FF000000
(1763740769.688900) can0 046#5004010080000000
(1763740769.689150) can0 201#801000853CD80067
(1763740769.689400) can0 20B#0019000000000000
(1763740769.689650) can0 210#0000F401AAAAAAAA
(1763740769.689900) can0 22B#0100000000000000
(1763740769.690100) can0 241#0228280000000000
(1763740769.690350) can0 24B#0000000000000000
(1763740769.690600) can0 6EF#0028000000820820
(1763740769.692000) can0 0CC#040701FFDF
(1763740769.692250) can0 0AF#390048077E480000
(1763740769.695900) can0 361#01C600001818A200
(1763740769.696200) can0 3A1#004100800A200000
(1763740769.696950) can0 081#410005145DC01800
(1763740769.697200) can0 04B#FFC8FE2000F70020
(1763740769.697400) can0 0A1#18C6B14018B41818
(1763740769.697650) can0 06B#0020040000000000
(1763740769.697950) can0 20B#0019000000000000
(1763740769.698200) can0 201#801000853CD80067
(1763740769.698450) can0 22B#0100000000000000
(1763740769.698650) can0 208#00003C0001C60000
(1763740769.698900) can0 241#0228280000000000
(1763740769.699150) can0 24B#0000000000000000
(1763740769.699400) can0 560#0000400082000200
(1763740769.699700) can0 5E0#6000000000016101
(1763740769.699950) can0 761#0202000000000000
(1763740769.700200) can0 221#801000853CD80067
(1763740769.700450) can0 261#0229010100000000
(1763740769.700700) can0 581#005E260000260000
(1763740769.702050) can0 0CC#050701FFDE
(1763740769.702250) can0 0AF#2D0058077E480000
(1763740769.705950) can0 361#01C600001818A200
(1763740769.706200) can0 3A1#004100800A200000
(1763740769.706750) can0 1A6#0000000000000000
(1763740769.707000) can0 04B#FFC9FDE000F60020
(1763740769.707250) can0 081#410005145DC01800
(1763740769.707500) can0 06B#0020040000000000
(1763740769.707700) can0 0A1#18C6B14018B41818
(1763740769.707950) can0 159#0000000000000000
(1763740769.708200) can0 186#800007DB00808000
(1763740769.708450) can0 166#002C002C002C002C
(1763740769.708700) can0 146#00FF0006FF000000
(1763740769.708900) can0 046#5004010080000000
(1763740769.709150) can0 201#801000853CD80067
(1763740769.709400) can0 209#001020C000081000
(1763740769.709650) can0 20B#0019000000000000
(1763740769.709900) can0 241#0228280000000000
(1763740769.710150) can0 22B#0100000000000000
(1763740769.710400) can0 6EF#00290B35121423D2
(1763740769.710650) can0 24B#0000000000000000
(1763740769.712000) can0 0CC#260700FFDE
(1763740769.712250) can0 0AF#7B0068067E480000
(1763740769.715950) can0 361#01C600001818A200
(1763740769.716200) can0 3A1#004100800A200000
(1763740769.716900) can0 04B#FFCAFDA000F50020
(1763740769.717150) can0 081#410005145DC01800
(1763740769.717400) can0 06B#0020040000000000
(1763740769.717600) can0 0A1#18C6B14018B41818
(1763740769.717850) can0 20B#0019000000000000
(1763740769.718100) can0 201#801000853CD80067
(1763740769.718350) can0 22B#0100000000000000
(1763740769.718600) can0 210#0000F401AAAAAAAA
(1763740769.718850) can0 241#0228280000000000
(1763740769.719100) can0 24B#0000000000000000
(1763740769.722000) can0 0CC#370700FFDE
(1763740769.722250) can0 0AF#6F0078067E480000
(1763740769.726000) can0 361#01C600001818A200
(1763740769.726250) can0 3A1#004100800A200000
(1763740769.726750) can0 1A6#0000000000000000
(1763740769.727000) can0 04B#FFCBFD6000F40020
(1763740769.727250) can0 081#410005145DC01800
(1763740769.727500) can0 06B#0020040000000000
(1763740769.727700) can0 0A1#18C6B14018B41818
(1763740769.727950) can0 159#0000000000000000
(1763740769.728200) can0 186#800007DB00808000
(1763740769.728400) can0 166#002C002C002C002C
(1763740769.728650) can0 146#00FF0008FF000000
(1763740769.728900) can0 046#5004020080000000
(1763740769.729150) can0 201#801000853CD80067
(1763740769.729400) can0 208#00003C0001C60000
(1763740769.729650) can0 20B#0019000000000000
(1763740769.729900) can0 221#801000853CD80067
(1763740769.730150) can0 22B#0100000000000000
(1763740769.730400) can0 241#0228280000000000
(1763740769.730650) can0 24B#0000000000000000
(1763740769.730850) can0 261#0229010100000000
(1763740769.731150) can0 5A1#0000000000000000
(1763740769.731350) can0 6EF#082908D1F32034CF
(1763740769.732000) can0 561#0200905E00000000
(1763740769.732250) can0 0AF#990088077E280000
(1763740769.732400) can0 0CC#C80701FFDF
(1763740769.736000) can0 361#01C600001818A200
(1763740769.736250) can0 3A1#004100800A200000
(1763740769.736750) can0 04B#FFCCFD2000F30020
(1763740769.737000) can0 06B#0020040000000000
(1763740769.737250) can0 081#410005145DC01800
(1763740769.737500) can0 0A1#18C6B14018B41818
(1763740769.737750) can0 20B#0019000000000000
(1763740769.738000) can0 22B#0100000000000000
(1763740769.738200) can0 201#801000853CD80067
(1763740769.738450) can0 241#0228280000000000
(1763740769.738700) can0 209#001020C000081000
(1763740769.739000) can0 24B#0000000000000000
(1763740769.742000) can0 0CC#C90701FFDE
(1763740769.742250) can0 0AF#D90098087E180000
(1763740769.746050) can0 361#01C600001818A200
(1763740769.746300) can0 3A1#004100800A200000
(1763740769.746700) can0 04B#FFCDFCE000F20020
(1763740769.746900) can0 586#05C6187F8000081F
(1763740769.747200) can0 06B#0020040000000000
(1763740769.747400) can0 081#410005145DC01800
(1763740769.747650) can0 0A1#18C6B14018B41818
(1763740769.747900) can0 159#0000000000000000
(1763740769.748150) can0 201#801000853CD80067
(1763740769.748400) can0 20B#0019000000000000
(1763740769.748650) can0 210#0000F401AAAAAAAA
(1763740769.748850) can0 22B#0100000000000000
(1763740769.749100) can0 241#0228280000000000
(1763740769.749350) can0 24B#0000000000000000
(1763740769.749600) can0 566#0000800000000000
(1763740769.749850) can0 1A6#0000000000000000
(1763740769.750100) can0 186#800007D700808000
(1763740769.750350) can0 166#002C002C002C002C
(1763740769.750600) can0 146#00FF000AFF000000
(1763740769.750800) can0 046#5004010080000000
(1763740769.751050) can0 6EF#1029000000000008
(1763740769.752000) can0 0CC#EA0700FFDE
(1763740769.752250) can0 0AF#E500A8087E180000
(1763740769.756050) can0 361#01C600001818A200
(1763740769.756300) can0 3A1#004100800A200000
(1763740769.756600) can0 04B#FFCEFCA000F10020
(1763740769.756850) can0 06B#0020040000000000
(1763740769.757100) can0 081#410005145DC01800
(1763740769.757350) can0 0A1#18C6B14018B41818
(1763740769.757600) can0 20B#0019000000000000
(1763740769.757850) can0 22B#0100000000000000
(1763740769.758100) can0 201#801000853CD80067
(1763740769.758350) can0 241#0228280000000000
(1763740769.758600) can0 24B#0000000000000000
(1763740769.758850) can0 208#00003C0001C60000
(1763740769.762000) can0 0CC#FB0700FFDE
(1763740769.762250) can0 0AF#D900B8087E280000
(1763740769.766050) can0 361#01C600001818A200
(1763740769.766300) can0 3A1#004100800A200000
(1763740769.766550) can0 04B#FFCFFC6000F00020
(1763740769.766800) can0 1A6#0000000000000000
(1763740769.767050) can0 06B#0020040000000000
(1763740769.767300) can0 081#410005145DC01800
(1763740769.767500) can0 0A1#18C6B14018B41818
(1763740769.767800) can0 159#0000000000000000
(1763740769.768000) can0 186#800007D700808000
(1763740769.768250) can0 166#002C002C002C002C
(1763740769.768500) can0 146#00FF000CFF000000
(1763740769.768750) can0 046#5004020080000000
(1763740769.769000) can0 201#801000853CD80067
(1763740769.769250) can0 203#0000003E00000000
(1763740769.769450) can0 209#001020C000081000
(1763740769.769700) can0 20B#2E181E1E00000000
(1763740769.769950) can0 241#0228280000000000
(1763740769.770200) can0 22B#010001800D010000
(1763740769.770450) can0 6EF#002A000000820820
(1763740769.770700) can0 24B#00000C0000000000
(1763740769.770950) can0 56B#0008600400000000
(1763740769.771100) can0 57E#0000
(1763740769.772000) can0 0CC#8C0701FFDF
(1763740769.772200) can0 0AF#8500C8077E280100
(1763740769.776050) can0 361#01C600001818A200
(1763740769.776300) can0 3A1#004100800A200000
(1763740769.776550) can0 04B#FFC0002000FF0022
(1763740769.776800) can0 06B#0020040000010100
(1763740769.777100) can0 20B#2E55000000000000
(1763740769.777300) can0 081#410005145DC01800
(1763740769.777550) can0 221#801000853CD80067
(1763740769.777800) can0 22B#010002800C010000
(1763740769.778050) can0 261#0229010100000000
(1763740769.778300) can0 0A1#18C6B14018B41818
(1763740769.778550) can0 24B#0000140000000000
(1763740769.778750) can0 210#0000F401AAAAAAAA
(1763740769.779000) can0 561#0200905E00000000
(1763740769.779250) can0 5A1#0000000000000000
(1763740769.780100) can0 201#801000853CD80067
(1763740769.780350) can0 241#0228280000000000
(1763740769.782000) can0 0CC#8D0701FFDE
(1763740769.782250) can0 0AF#9100D8077E280100
(1763740769.786050) can0 361#01C600001818A200
(1763740769.786300) can0 3A1#004100800A200000
(1763740769.786550) can0 04B#FFC1FFE000FE0022
(1763740769.786850) can0 1A6#0000000000000000
(1763740769.787100) can0 06B#0020040080010100
(1763740769.787300) can0 081#410005145DC01800
(1763740769.787550) can0 0A1#18C6B14018B41818
(1763740769.787800) can0 159#0000040000000000
(1763740769.788000) can0 186#800007D700808000
(1763740769.788250) can0 166#002C002C002C002C
(1763740769.788500) can0 146#00FF000EFF000000
(1763740769.788750) can0 046#5004020080000000
(1763740769.789000) can0 201#801000853CD80067
(1763740769.789250) can0 208#00003C0001C60000
(1763740769.789500) can0 20B#2E91000000000000
(1763740769.789750) can0 241#0228280000000000
(1763740769.790000) can0 22B#010003000B010000
(1763740769.790200) can0 24B#0000180000000000
(1763740769.792000) can0 0CC#AE0701FFDF
(1763740769.792250) can0 0AF#B500E8077E380100
(1763740769.796100) can0 361#01C600001818A200
(1763740769.796350) can0 04B#FFC2FFA000FD0022
(1763740769.796600) can0 3A1#004100800A200000
(1763740769.796850) can0 06B#0020040080010100
(1763740769.797100) can0 560#0000400082000200
(1763740769.797300) can0 081#410005145DC01800
(1763740769.797550) can0 0A1#18C6B14018B41818
(1763740769.797800) can0 20B#2ECD000000000000
(1763740769.798050) can0 5E0#6000000000016101
(1763740769.798300) can0 201#801000853CD80067
(1763740769.798500) can0 22B#0100020000010000
(1763740769.798750) can0 209#001020C000081000
(1763740769.799000) can0 241#0228280000000000
(1763740769.799250) can0 24B#0000100000000000
(1763740769.800100) can0 761#0202000000000000
(1763740769.800350) can0 581#005E250000260000
(1763740769.801250) can0 221#801000853CD80067
(1763740769.801500) can0 261#0229010100000000
(1763740769.801950) can0 0CC#AF0700FFDF
(1763740769.802200) can0 0AF#CB00F8067E380100
(1763740769.806100) can0 361#01C600001818A200
(1763740769.806350) can0 04B#FFC3FF6000FC0022
(1763740769.806600) can0 3A1#004100800A200000
(1763740769.806850) can0 06B#0020040080010100
(1763740769.807100) can0 1A6#0000000000000000
(1763740769.807350) can0 081#410005145DC01800
(1763740769.807550) can0 0A1#18C6B14018B41818
(1763740769.807850) can0 159#0000040000000000
(1763740769.808050) can0 186#800007D900808000
(1763740769.808300) can0 166#002C002C002C002C
(1763740769.808550) can0 146#00FF0000FF000000
(1763740769.808800) can0 046#5004010080000000
(1763740769.809000) can0 201#801000853CD80067
(1763740769.809250) can0 20B#2EFF000000000000
(1763740769.809500) can0 210#0000F401AAAAAAAA
(1763740769.809750) can0 22B#0100020000010000
(1763740769.810000) can0 241#0228280000000000
(1763740769.810250) can0 24B#0000100000000000
(1763740769.810350) can0 56C#00
(1763740769.812000) can0 0CC#500701FFDE
(1763740769.812250) can0 0AF#1F0008067E280100
(1763740769.816100) can0 04B#FFC4FF2000FB0022
(1763740769.816350) can0 361#01C600001818A200
(1763740769.816600) can0 06B#0020040080010100
(1763740769.816850) can0 3A1#004100800A200000
(1763740769.817100) can0 20B#2EFF000000000000
(1763740769.817300) can0 081#410005145DC01800
(1763740769.817550) can0 0A1#18C6B14018B41818
(1763740769.817800) can0 22B#0100018000010000
(1763740769.818050) can0 24B#00000C0000000000
(1763740769.818300) can0 201#801000853CD80067
(1763740769.818550) can0 241#0228280000000000
(1763740769.818800) can0 208#00003C0001C60000
(1763740769.822000) can0 0CC#510701FFDF
(1763740769.822200) can0 0AF#470018067E280000
(1763740769.826000) can0 04B#FFC5FEE000FA0022
(1763740769.826250) can0 361#01C600001818A200
(1763740769.826500) can0 06B#0020040080010100
(1763740769.826750) can0 3A1#004100800A200000
(1763740769.827000) can0 159#0000040000000000
(1763740769.827250) can0 081#410005145DC01800
(1763740769.827500) can0 0A1#18C6B14018B41818
(1763740769.827750) can0 1A6#0000000000000000
(1763740769.827950) can0 186#800007D700808000
(1763740769.828200) can0 166#002C002C002C002C
(1763740769.828450) can0 146#00FF0002FF000000
(1763740769.828700) can0 046#5004010080000000
(1763740769.828900) can0 201#801000853CD80067
(1763740769.829150) can0 209#0010208000081000
(1763740769.829450) can0 20B#2EFF000000000000
(1763740769.829650) can0 221#801000853CD80067
(1763740769.829900) can0 22B#0100018000010000
(1763740769.830150) can0 241#0228280000000000
(1763740769.830400) can0 24B#00000C0000000000
(1763740769.830650) can0 261#0229010100000000
(1763740769.830850) can0 561#0200905E00000000
(1763740769.831200) can0 5A1#0000000000000000
(1763740769.831950) can0 0CC#720700FFDF
(1763740769.832200) can0 0AF#7B0028067E280000
(1763740769.835950) can0 04B#FFC6FEA000F90022
(1763740769.836200) can0 361#01C600001818A200
(1763740769.836450) can0 06B#0020040080010100
(1763740769.836650) can0 3A1#004100800A200000
(1763740769.836900) can0 20B#2EFF000000000000
(1763740769.837200) can0 22B#0100010000010000
(1763740769.837450) can0 081#410005145DC01800
(1763740769.837650) can0 0A1#18C6B14018B41818
(1763740769.837900) can0 24B#0000080000000000
(1763740769.838200) can0 201#801000853CD80067
(1763740769.838450) can0 241#0228280000000000
(1763740769.838650) can0 210#0000F401AAAAAAAA
(1763740769.842000) can0 0CC#630701FFDE
(1763740769.842200) can0 0AF#770038067E380000
(1763740769.845850) can0 04B#FFC7FE6000F80022
(1763740769.846150) can0 06B#0020040080010100
(1763740769.846350) can0 361#01C600001818A200
(1763740769.846600) can0 159#0000040000000000
(1763740769.846850) can0 3A1#004100800A200000
(1763740769.847100) can0 20B#2EFF000000000000
(1763740769.847350) can0 081#410005145DC01800
(1763740769.847600) can0 0A1#18C6B14018B41818
(1763740769.847850) can0 22B#0100000000010000
(1763740769.848050) can0 586#05C6187FA000081D
(1763740769.848300) can0 201#801000853CD80067
(1763740769.848550) can0 241#0228280000000000
(1763740769.848800) can0 208#00003C0001C60000
(1763740769.849050) can0 24B#0000000000000000
(1763740769.849250) can0 566#0000800000000000
(1763740769.849550) can0 1A6#0000000000000000
(1763740769.849800) can0 186#800007D900808000
(1763740769.850000) can0 166#002C002C002C002C
(1763740769.850250) can0 146#00FF0004FF000000
(1763740769.850500) can0 046#5004020080000000
(1763740769.851950) can0 0CC#040701FFDF
(1763740769.852200) can0 0AF#1B0048067E380000
(1763740769.855750) can0 04B#FFC8FE2000F70022
(1763740769.856050) can0 06B#0020040080010100
(1763740769.856300) can0 361#01C600001818A200
(1763740769.856550) can0 20B#2EFF000000000000
(1763740769.856800) can0 3A1#004100800A200000
(1763740769.857050) can0 22B#0100000000010000
(1763740769.857250) can0 081#410005145DC01800
(1763740769.857500) can0 0A1#18C6B14018B41818
(1763740769.857750) can0 24B#0000000000000000
(1763740769.858200) can0 201#801000853CD80067
(1763740769.858450) can0 241#0228280000000000
(1763740769.858700) can0 209#0010208000081000
(1763740769.861950) can0 0CC#050700FFDF
(1763740769.862200) can0 0AF#170058067E280000
(1763740769.865700) can0 04B#FFC9FDE000F60022
(1763740769.865950) can0 06B#0020040080010100
(1763740769.866250) can0 159#0000050000000000
(1763740769.866500) can0 361#01C600001818A200
(1763740769.866750) can0 1A6#0000000000000000
(1763740769.866950) can0 186#800007D700808000
(1763740769.867200) can0 166#002C002C002C002C
(1763740769.867450) can0 081#410005145DC01800
(1763740769.867700) can0 146#00FF0006FF000000
(1763740769.867900) can0 046#5004020080000000
(1763740769.868150) can0 203#0000003E000086CD
(1763740769.868400) can0 0A1#18C6B14018B41818
(1763740769.868650) can0 20B#2ED7000000000000
(1763740769.868900) can0 210#0000F401AAAAAAAA
(1763740769.869150) can0 22B#0100000000010000
(1763740769.869350) can0 201#801000853CD80067
(1763740769.869650) can0 24B#0000000000000000
(1763740769.869850) can0 3A1#004100800A200000
(1763740769.870100) can0 56B#0008600400000000
(1763740769.870350) can0 241#0228280000000000
(1763740769.870500) can0 57E#0000
(1763740769.872000) can0 0CC#360700FFDF
(1763740769.872200) can0 0AF#030068067E180000
(1763740769.875650) can0 04B#FFCAFDA000F50022
(1763740769.875900) can0 06B#0020040080010100
(1763740769.876150) can0 20B#2ED6080900000001
(1763740769.876400) can0 361#01C600001818A200
(1763740769.876650) can0 22B#0100000000010000
(1763740769.876900) can0 3A1#004100800A200000
(1763740769.877150) can0 24B#0000000000000000
(1763740769.877400) can0 081#410005145DC01800
(1763740769.877600) can0 561#0200905E00000000
(1763740769.878250) can0 0A1#18C6B14018B41818
(1763740769.878500) can0 221#801000853CD80067
(1763740769.878700) can0 208#00003C0001C60000
(1763740769.878950) can0 261#0229010100000000
(1763740769.879200) can0 5A1#0000000000000000
(1763740769.879450) can0 201#801000853CD80067
(1763740769.880250) can0 241#0228280000000000
(1763740769.881950) can0 0CC#270701FFDE
(1763740769.882200) can0 0AF#170078067E180000
(1763740769.885550) can0 04B#FFCBFD6000F40022
(1763740769.885800) can0 06B#0020040080010100
(1763740769.886100) can0 159#0000050000000000
(1763740769.886300) can0 361#01C600001818A200
(1763740769.886550) can0 20B#7CD6442B00000003
(1763740769.886800) can0 3A1#004100800A200000
(1763740769.887050) can0 1A6#0000000000000000
(1763740769.887300) can0 081#410005145DC01800
(1763740769.887500) can0 0A1#18C6B10018B41818
(1763740769.887750) can0 186#800007D700808000
(1763740769.888000) can0 166#002C002C002C002C
(1763740769.888250) can0 146#00FF0008FF000000
(1763740769.888500) can0 046#5004020080000000
(1763740769.888750) can0 201#801000853CD80067
(1763740769.889000) can0 209#0010208000081000
(1763740769.889200) can0 22B#0100000000010000
(1763740769.889450) can0 241#0228280000000000
(1763740769.889700) can0 24B#0000000000000000
(1763740769.891950) can0 0CC#C80701FFDF
(1763740769.892200) can0 0AF#F30088067E280000
(1763740769.894850) can0 560#0000400082000200
(1763740769.895100) can0 5E0#6000000000016101
(1763740769.895500) can0 04B#FFCCFD2000F30022
(1763740769.895750) can0 06B#0020040080010100
(1763740769.896050) can0 20B#7CD6802900000004
(1763740769.896250) can0 22B#0100000000010000
(1763740769.896500) can0 361#01C600001818A200
(1763740769.896750) can0 24B#0000000000000000
(1763740769.897000) can0 3A1#004100800A200000
(1763740769.897300) can0 081#410005145DC01800
(1763740769.897500) can0 0A1#18C6B10018B41818
(1763740769.898250) can0 201#801000853CD80067
(1763740769.898500) can0 241#0228280000000000
(1763740769.898750) can0 210#0000F401AAAAAAAA
(1763740769.900250) can0 761#0202000000000000
(1763740769.900500) can0 581#005E250000260000
(1763740769.901450) can0 221#801000853CD80067
(1763740769.901650) can0 261#0229010100000000
(1763740769.901950) can0 0CC#C90700FFDF
(1763740769.902200) can0 0AF#950098077E380000
(1763740769.903050) can0 1A6#0000000000000000
(1763740769.903300) can0 186#CB0007D700808300
(1763740769.903500) can0 166#002C002C002C002C
(1763740769.903750) can0 146#00FF000AFF000000
(1763740769.904000) can0 046#5004020080000000
(1763740769.905400) can0 04B#FFCDFCE000F20022
(1763740769.905650) can0 06B#0020040080010100
(1763740769.905900) can0 159#0000040000000000
(1763740769.906200) can0 20B#7CD6802A00000004
(1763740769.906450) can0 361#01C600001818A200
(1763740769.906700) can0 22B#0100000000020000
(1763740769.906900) can0 3A1#004100800A200000
(1763740769.907150) can0 24B#0000000000000000
(1763740769.907400) can0 081#410005145DC01800
(1763740769.907600) can0 0A1#18C6B10018B41818
(1763740769.908300) can0 201#801000853CD80067
(1763740769.908550) can0 241#0228280000000000
(1763740769.908800) can0 208#00003C0001C60000
(1763740769.908950) can0 56F#00
(1763740769.911950) can0 0CC#FA0701FFDE
(1763740769.912200) can0 0AF#A900A8077E380000
(1763740769.915300) can0 04B#FFCEFCA000F10022
(1763740769.915600) can0 06B#0020040080010100
(1763740769.915850) can0 20B#7CD6802A00000003
(1763740769.916100) can0 22B#0100000000010000
(1763740769.916350) can0 361#01C600001818A200
(1763740769.916600) can0 24B#0000000000000000
(1763740769.916850) can0 3A1#004100800A200000
(1763740769.917300) can0 081#410005145DC01800
(1763740769.917550) can0 0A1#18C6B10018B41818
(1763740769.918300) can0 201#801000853CD80067
(1763740769.918550) can0 241#0228280000000000
(1763740769.918800) can0 209#0010208000081000
(1763740769.921950) can0 0CC#FB0701FFDF
(1763740769.922200) can0 0AF#A500B8077E280000
(1763740769.923050) can0 1A6#0000000000000000
(1763740769.923300) can0 186#CB0007D900808300
(1763740769.923550) can0 166#002C002C002C002C
(1763740769.923800) can0 146#00FF000CFF000000
(1763740769.924050) can0 046#5004020080000000
(1763740769.925250) can0 04B#FFCFFC6000F00022
(1763740769.925500) can0 06B#0020040080010100
(1763740769.925750) can0 159#0000050000000000
(1763740769.926050) can0 20B#7CD6802900000003
(1763740769.926300) can0 22B#0100000000010000
(1763740769.926500) can0 361#01C600001818A200
(1763740769.926800) can0 24B#0000000000000000
(1763740769.927050) can0 3A1#004100800A200000
(1763740769.927350) can0 081#410005145DC01800
(1763740769.927600) can0 0A1#18C6B10018B41818
(1763740769.928350) can0 5A1#0000000000000000
(1763740769.928550) can0 201#801000853CD80067
(1763740769.928800) can0 210#0000F401AAAAAAAA
(1763740769.929300) can0 241#0228280000000000
(1763740769.929550) can0 221#801000853CD80067
(1763740769.929800) can0 261#0229010100000000
(1763740769.930350) can0 561#0200905E00000000
(1763740769.931950) can0 0CC#9C0700FFDF
(1763740769.932200) can0 0AF#C900C8077E280000
(1763740769.935150) can0 04B#FFC0002000FF0022
(1763740769.935400) can0 06B#0020040080010100
(1763740769.935650) can0 20B#7CD5802A00000003
(1763740769.935950) can0 22B#0100000000010000
(1763740769.936200) can0 24B#0000000000000000
(1763740769.936450) can0 361#01C600001818A200
(1763740769.936700) can0 3A1#004100800A200000
(1763740769.937350) can0 081#410005145DC01800
(1763740769.937550) can0 0A1#18C6B10018B41818
(1763740769.938350) can0 201#801000853CD80067
(1763740769.938600) can0 241#0228280000000000
(1763740769.938850) can0 208#00003C0001C60000
(1763740769.941950) can0 0CC#8D0700FFDF
(1763740769.942150) can0 0AF#B700D8067E280000
(1763740769.943100) can0 586#15C6187F9000081E
(1763740769.943350) can0 566#0000800000000000
(1763740769.943550) can0 1A6#0000000000000000
(1763740769.943800) can0 186#CB0007D700808300
(1763740769.944050) can0 166#002C002C002C002C
(1763740769.944250) can0 146#00FF000EFF000000
(1763740769.944500) can0 046#5004010080000000
(1763740769.945050) can0 04B#FFC1FFE000FE0022
(1763740769.945350) can0 06B#0020040080010100
(1763740769.945600) can0 159#0000050000000000
(1763740769.945850) can0 20B#7CD6802A00000003
(1763740769.946150) can0 22B#0100000000010000
(1763740769.946400) can0 361#01C600001818A200
(1763740769.946600) can0 24B#0000000000000000
(1763740769.946850) can0 3A1#004100800A200000
(1763740769.947350) can0 081#410005145DC01800
(1763740769.947600) can0 0A1#18C6B10018B41818
(1763740769.948350) can0 201#801000853CD80067
(1763740769.948600) can0 209#0010208000081000
(1763740769.948850) can0 241#0228280000000000
(1763740769.951950) can0 0CC#BE0700FFDF
(1763740769.952200) can0 0AF#3500E8057E280000
(1763740769.955000) can0 04B#FFC2FFA000FD0022
(1763740769.955250) can0 06B#0020040080010100
(1763740769.955500) can0 20B#7CD6802900000003
(1763740769.955800) can0 22B#0100000000010000
(1763740769.956050) can0 24B#0000000000000000
(1763740769.956350) can0 361#01C600001818A200
(1763740769.956650) can0 3A1#004100800A200000
(1763740769.957350) can0 081#410005145DC01800
(1763740769.957600) can0 0A1#18C6B10018B41818
(1763740769.958350) can0 201#801000853CD80067
(1763740769.958600) can0 210#0000F401AAAAAAAA
(1763740769.958850) can0 241#0228280000000000
(1763740769.961950) can0 0CC#AF0700FFDF
(1763740769.962200) can0 0AF#8700F8067E380000
(1763740769.963000) can0 1A6#0000000000000000
(1763740769.963250) can0 186#CB0007D700808300
(1763740769.963500) can0 166#002C002C002C002C
(1763740769.963750) can0 146#00FF0000FF000000
(1763740769.964000) can0 046#5004020080000000
(1763740769.964900) can0 04B#FFC3FF6000FC0022
(1763740769.965200) can0 06B#0020040080010100
(1763740769.965450) can0 159#0000050000000000
(1763740769.965700) can0 20B#7CD6802A00000003
(1763740769.965950) can0 22B#0100000000010000
(1763740769.966250) can0 24B#0000000000000000
(1763740769.966450) can0 361#01C600001818A200
(1763740769.966750) can0 203#0000003E000086CD
(1763740769.967000) can0 3A1#004100800A200000
(1763740769.967200) can0 56B#0008600400000000
(1763740769.967450) can0 081#410005145DC01800
(1763740769.967700) can0 0A1#18C6B10018B41818
(1763740769.967800) can0 57E#0000
(1763740769.968400) can0 201#801000853CD80067
(1763740769.968650) can0 208#00003C0001C60000
(1763740769.968900) can0 241#0228280000000000
(1763740769.971900) can0 0CC#500700FFDF
(1763740769.972150) can0 0AF#210008077E380000
(1763740769.974850) can0 04B#FFC4FF2000FB0022
(1763740769.975100) can0 06B#0020040080010100
(1763740769.975350) can0 20B#7CD6802A00000003
(1763740769.975650) can0 22B#0100000000010000
(1763740769.975900) can0 24B#0000000000000000
(1763740769.976400) can0 361#01C600001818A200
(1763740769.976600) can0 3A1#004100800A200000
(1763740769.977400) can0 561#0200905E00000000
(1763740769.977650) can0 081#410005145DC01800
(1763740769.978400) can0 0A1#18C6B10018B41818
(1763740769.978650) can0 209#0010208000081000
(1763740769.978900) can0 221#801000853CD80067
(1763740769.979150) can0 261#0229010100000000
(1763740769.979350) can0 5A1#0000000000000000
(1763740769.979600) can0 201#801000853CD80067
(1763740769.980400) can0 241#0228280000000000
(1763740769.981950) can0 0CC#410700FFDF
(1763740769.982200) can0 0AF#350018077E380000
(1763740769.983050) can0 1A6#0000000000000000
(1763740769.983300) can0 186#CB0007D900808300
(1763740769.983500) can0 166#002C002C002C002C
(1763740769.983750) can0 146#00FF0002FF000000
(1763740769.984000) can0 046#5004020080000000
(1763740769.984750) can0 04B#FFC5FEE000FA0022
(1763740769.985000) can0 06B#0020040080010100
(1763740769.985300) can0 159#0000040000000000
(1763740769.985550) can0 20B#7CD6802A00000004
(1763740769.985800) can0 22B#0100000000010000
(1763740769.986100) can0 24B#0000000000000000
(1763740769.986400) can0 361#01C600001818A200
(1763740769.986650) can0 3A1#004100800A200000
(1763740769.987450) can0 081#410005145DC01800
(1763740769.987650) can0 0A1#18C6B10018B41818
(1763740769.988450) can0 201#801000853CD80067
(1763740769.988650) can0 210#0000F401AAAAAAAA
(1763740769.988900) can0 241#0228280000000000
(1763740769.991950) can0 0CC#720700FFDF
(1763740769.992150) can0 0AF#6D0028087E280000
(1763740769.993200) can0 560#0000400082000200
(1763740769.993450) can0 5E0#6000000000016101
(1763740769.994700) can0 04B#FFC6FEA000F90022
(1763740769.994950) can0 06B#0020040080010100
(1763740769.995200) can0 20B#7CD6802A00000003
(1763740769.995450) can0 22B#0100000000010000
(1763740769.995750) can0 24B#0000000000000000
(1763740769.996400) can0 361#01C600001818A200
(1763740769.996650) can0 3A1#004100800A200000
(1763740769.997450) can0 081#410005145DC01800
(1763740769.997650) can0 0A1#18C6B10018B41818
(1763740769.998450) can0 201#801000853CD80067
(1763740769.998700) can0 208#00003C0001C60000
(1763740769.998950) can0 241#0228280000000000
(1763740770.000450) can0 761#0202000000000000
(1763740770.000650) can0 221#801000853CD80067
(1763740770.000900) can0 261#0229010100000000
(1763740770.001150) can0 581#005E250000260000
(1763740770.001900) can0 0CC#730701FFDF
(1763740770.002150) can0 0AF#130038097E280000
(1763740770.003050) can0 1A6#0000000000000000
(1763740770.003300) can0 186#CB0007D700808300
(1763740770.003550) can0 166#002C002C002C002C
(1763740770.003800) can0 146#00FF0004FF000000
(1763740770.004050) can0 046#5004020080000000
(1763740770.004600) can0 04B#FFC7FE6000F80022
(1763740770.004850) can0 06B#0020040080010100
(1763740770.005150) can0 159#0000050000000000
(1763740770.005400) can0 20B#7CD6802900000003
(1763740770.005650) can0 22B#0600000000010000
(1763740770.005900) can0 24B#0000000000000000
(1763740770.006450) can0 361#01C600001818A200
(1763740770.006700) can0 3A1#004100800A200000
(1763740770.007450) can0 081#410005145DC01800
(1763740770.007700) can0 0A1#18C6B10018B41818
(1763740770.008450) can0 201#801000853CD80067
(1763740770.008700) can0 209#0010208000081000
(1763740770.008950) can0 241#0228280000000000
(1763740770.011950) can0 0CC#140700FFDF
(1763740770.012150) can0 0AF#E900480A7E180000
(1763740770.014550) can0 04B#FFC8FE2000F70022
(1763740770.014750) can0 06B#0020040080010100
(1763740770.015050) can0 20B#7CD6802A00000000
(1763740770.015300) can0 22B#0600000000000011
(1763740770.015550) can0 24B#0000000000091200
(1763740770.016450) can0 361#01C600001818A200
(1763740770.016700) can0 3A1#004100800A200000
(1763740770.017450) can0 081#410005145DC01800
(1763740770.017700) can0 0A1#18C6B10018B41818
(1763740770.018450) can0 201#801000853CD80067
(1763740770.018700) can0 210#0000F401AAAAAAAA
(1763740770.018950) can0 241#0228280000000000
(1763740770.021900) can0 0CC#050700FFDF
(1763740770.022150) can0 0AF#430058097E180000
(1763740770.023300) can0 1A6#0000000000000000
(1763740770.023550) can0 186#CB0007D700808300
(1763740770.023750) can0 166#002C002C002C002C
(1763740770.024000) can0 146#00FF0006FF000000
(1763740770.024250) can0 046#5004020080000000
(1763740770.024500) can0 04B#FFC9FDE000F60022
(1763740770.024750) can0 06B#0020040080010100
(1763740770.025000) can0 159#0000000000000000
(1763740770.025250) can0 20B#7CD6802A00000000
(1763740770.025550) can0 22B#0600000000000011
(1763740770.025800) can0 24B#0000000000091200
(1763740770.026500) can0 361#01C600001818A200
(1763740770.026750) can0 3A1#004100800A200000
(1763740770.027500) can0 081#410005145DC01800
(1763740770.027700) can0 0A1#18C6B10018B41818
(1763740770.028500) can0 5A1#0000000000000000
(1763740770.028750) can0 201#801000853CD80067
(1763740770.029000) can0 208#00003C0001C60000
(1763740770.029500) can0 241#0228280000000000
(1763740770.029700) can0 221#801000853CD80067
(1763740770.029950) can0 261#0229010100000000
(1763740770.030500) can0 561#0200905E00000000
(1763740770.031900) can0 0CC#360700FFDF
(1763740770.032150) can0 0AF#570068097E280000
(1763740770.034350) can0 04B#FFCAFDA000F50022
(1763740770.034650) can0 06B#0020040080010100
(1763740770.034900) can0 20B#7CD6802900000000
(1763740770.035150) can0 22B#0600000000000011
(1763740770.035400) can0 24B#0000000000091200
(1763740770.036500) can0 361#01C600001818A200
(1763740770.036750) can0 3A1#004100800A200000
(1763740770.037500) can0 081#410005145DC01800
(1763740770.037750) can0 0A1#18C6B10018B41818
(1763740770.038500) can0 201#801000853CD80067
(1763740770.038750) can0 209#0010208000081000
(1763740770.039000) can0 241#0228280000000000
(1763740770.041950) can0 0CC#370701FFDF
(1763740770.042150) can0 0AF#430078097E280000
(1763740770.043250) can0 586#15C6187F7000081E
(1763740770.043500) can0 566#0000800000000000
(1763740770.043750) can0 1A6#0000000000000000
(1763740770.044000) can0 186#CB0007D700808300
(1763740770.044200) can0 166#002C002C002C002C
(1763740770.044450) can0 04B#FFCBFD6000F40022
(1763740770.044700) can0 146#00FF0008FF000000
(1763740770.044950) can0 046#5004020080000000
(1763740770.045200) can0 06B#0020040080010100
(1763740770.045450) can0 159#0000000000000000
(1763740770.045700) can0 20B#7CD5802A00000000
(1763740770.046000) can0 22B#0600000000000011
(1763740770.046250) can0 24B#0000000000091200
(1763740770.046550) can0 361#01C600001818A200
(1763740770.046800) can0 3A1#004100800A200000
(1763740770.047500) can0 081#410005145DC01800
(1763740770.047750) can0 0A1#18C6B10018B41818
(1763740770.048500) can0 201#801000853CD80067
(1763740770.048750) can0 210#0000F401AAAAAAAA
(1763740770.049000) can0 241#0228280000000000
(1763740770.051900) can0 0CC#D80700FFDF
(1763740770.052150) can0 0AF#E50088087E280000
(1763740770.054200) can0 04B#FFCCFD2000F30022
(1763740770.054450) can0 06B#0020040080010100
(1763740770.054700) can0 20B#7CD6802A00000000
(1763740770.055000) can0 22B#0600000000000012
(1763740770.055250) can0 24B#0000000000091200
(1763740770.056500) can0 361#01C600001818A200
(1763740770.056750) can0 3A1#004100800A200000
(1763740770.056900) can0 56C#00
(1763740770.057550) can0 081#410005145DC01800
(1763740770.057750) can0 0A1#18C6B10018B41818
(1763740770.058550) can0 201#801000853CD80067
(1763740770.058800) can0 208#00003C0001C60000
(1763740770.059000) can0 241#0228280000000000
(1763740770.061900) can0 0CC#C90700FFDF
(1763740770.062150) can0 0AF#F10098087E280000
(1763740770.063250) can0 1A6#0000000000000000
(1763740770.063500) can0 186#CB0007D700808300
(1763740770.063750) can0 166#002C002C002C002C
(1763740770.064000) can0 146#00FF000AFF000000
(1763740770.064250) can0 046#5004020080000000
(1763740770.064500) can0 04B#FFCDFCE000F20022
(1763740770.064750) can0 06B#0020040080010100
(1763740770.065000) can0 159#0000000000000000
(1763740770.065250) can0 20B#7CD6802900000000
(1763740770.065500) can0 22B#0600000000000012
(1763740770.065800) can0 24B#0000000000091200
(1763740770.066050) can0 56B#0008600400000000
(1763740770.066200) can0 57E#0000
(1763740770.066550) can0 361#01C600001818A200
(1763740770.066800) can0 203#0000003E000086CD
(1763740770.067050) can0 3A1#004100800A200000
(1763740770.067550) can0 081#410005145DC01800
(1763740770.067800) can0 0A1#18C6B10018B41818
(1763740770.068550) can0 201#801000853CD80067
(1763740770.068800) can0 209#0010208000081000
(1763740770.069050) can0 241#0228280000000000
(1763740770.071900) can0 0CC#FA0700FFDF
(1763740770.072150) can0 0AF#A900A8077E380000
(1763740770.074050) can0 04B#FFCEFCA000F10022
(1763740770.074300) can0 06B#0020040080010100
(1763740770.074600) can0 20B#7CD6802A00000000
(1763740770.074850) can0 22B#0600000000000011
(1763740770.075100) can0 24B#0000000000091200
(1763740770.076550) can0 361#01C600001818A200
(1763740770.076800) can0 3A1#004100800A200000
(1763740770.077600) can0 561#0200905E00000000
(1763740770.077800) can0 081#410005145DC01800
(1763740770.078550) can0 0A1#18C6B10018B41818
(1763740770.078800) can0 210#0000F401AAAAAAAA
(1763740770.079050) can0 221#801000853CD80067
(1763740770.079300) can0 261#0229010100000000
(1763740770.079550) can0 5A1#0000000000000000
(1763740770.079750) can0 201#801000853CD80067
(1763740770.080550) can0 241#0228280000000000
(1763740770.081900) can0 0CC#EB0700FFDF
(1763740770.082150) can0 0AF#D700B8067E380000
(1763740770.083400) can0 1A6#0000000000000000
(1763740770.083600) can0 186#CB0007D900808300
(1763740770.083850) can0 166#002C002C002C002C
(1763740770.084100) can0 04B#FFCFFC6000F00022
(1763740770.084350) can0 146#00FF000CFF000000
(1763740770.084600) can0 046#5004020080000000
(1763740770.084850) can0 06B#0020040080010100
(1763740770.085100) can0 159#0000000000000000
(1763740770.085350) can0 20B#7CD6802A00000000
(1763740770.085650) can0 22B#0600000000000011
(1763740770.085900) can0 24B#0000000000091200
(1763740770.086600) can0 361#01C600001818A200
(1763740770.086800) can0 3A1#004100800A200000
(1763740770.087600) can0 081#410005145DC01800
(1763740770.087800) can0 0A1#18C6B10018B41818
(1763740770.088600) can0 201#801000853CD80067
(1763740770.088850) can0 208#00003C0001C60000
(1763740770.089100) can0 241#0228280000000000
(1763740770.091450) can0 560#0000400082000200
(1763740770.091750) can0 5E0#6000000000016101
(1763740770.091900) can0 0CC#9C0700FFDF
(1763740770.092150) can0 0AF#0500C8057E380000
(1763740770.093900) can0 04B#FFC0002000FF0022
(1763740770.094150) can0 06B#0020040080010100
(1763740770.094400) can0 20B#7CD6802900000000
(1763740770.094700) can0 22B#0600000000000011
(1763740770.094950) can0 24B#0000000000091200
(1763740770.096600) can0 361#01C600001818A200
(1763740770.096850) can0 3A1#004100800A200000
(1763740770.097600) can0 081#410005145DC01800
(1763740770.097850) can0 0A1#18C6B10018B41818
(1763740770.098600) can0 201#801000853CD80067
(1763740770.098850) can0 209#0010208000081000
(1763740770.099100) can0 241#0228280000000000
(1763740770.100600) can0 761#0202000000000000
(1763740770.100850) can0 221#801000853CD80067
(1763740770.101100) can0 261#0229010100000000
(1763740770.101350) can0 581#005E250000260000
(1763740770.101900) can0 0CC#8D0700FFDF
(1763740770.102150) can0 0AF#1100D8057E380000
(1763740770.103250) can0 1A6#0000000000000000
(1763740770.103500) can0 186#CB0007D900808300
(1763740770.103750) can0 166#002C002C002C002C
(1763740770.103950) can0 04B#FFC1FFE000FE0022
(1763740770.104200) can0 146#00FF000EFF000000
(1763740770.104450) can0 046#5000020080000000
(1763740770.104700) can0 06B#0020040080010100
(1763740770.105000) can0 159#0000000000000000
(1763740770.105200) can0 20B#7CD5802B00000000
(1763740770.105500) can0 22B#0600000000000011
(1763740770.105750) can0 24B#0000000000091200
(1763740770.106600) can0 361#01C600001818A200
(1763740770.106850) can0 3A1#004100800A200000
(1763740770.107600) can0 081#410005145DC01800
(1763740770.107850) can0 0A1#18C6B10018B41818
(1763740770.108600) can0 210#0000F401AAAAAAAA
(1763740770.108850) can0 201#801000853CD80067
(1763740770.109050) can0 241#0228280000000000
(1763740770.111900) can0 0CC#BE0700FFDF
(1763740770.112150) can0 0AF#2D00E8057E380000
(1763740770.113750) can0 04B#FFC2FFA000FD0022
(1763740770.114000) can0 06B#0020040080010100
(1763740770.114250) can0 20B#7CD6802A00000000
(1763740770.114550) can0 22B#0600000000000011
(1763740770.114800) can0 24B#0000000000091200
(1763740770.116600) can0 361#01C600001818A200
(1763740770.116900) can0 3A1#004100800A200000
(1763740770.117650) can0 081#410005145DC01800
(1763740770.117850) can0 0A1#18C6B10018B41818
(1763740770.118600) can0 208#00003C0001C60000
(1763740770.118850) can0 201#801000853CD80067
(1763740770.119100) can0 241#0228280000000000
(1763740770.121900) can0 0CC#AF0700FFDF
(1763740770.122150) can0 0AF#8700F8067E380000
(1763740770.123250) can0 1A6#0000000000000000
(1763740770.123500) can0 186#CB0007D900808300
(1763740770.123750) can0 04B#FFC3FF6000FC0022
(1763740770.123950) can0 166#002C002C002C002C
(1763740770.124200) can0 06B#0020040080010100
(1763740770.124500) can0 146#00FF0000FF000000
(1763740770.124750) can0 046#5000020080000000
(1763740770.124950) can0 159#0000000000000000
(1763740770.125200) can0 20B#7CD6802A00000000
(1763740770.125500) can0 22B#0600000000000011
(1763740770.125750) can0 24B#0000000000091200
(1763740770.126650) can0 361#01C600001818A200
(1763740770.126900) can0 3A1#004100800A200000
(1763740770.127650) can0 081#410005145DC01800
(1763740770.127850) can0 0A1#18C6B10018B41818
(1763740770.128600) can0 209#0010208000081000
(1763740770.128850) can0 201#801000853CD80067
(1763740770.129100) can0 5A1#0000000000000000
(1763740770.129650) can0 241#0228280000000000
(1763740770.130650) can0 561#0200905E00000000
(1763740770.130900) can0 221#801000853CD80067
(1763740770.131150) can0 261#0229010100000000
(1763740770.131900) can0 0CC#500700FFDF
(1763740770.132150) can0 0AF#530008067E280000
(1763740770.133600) can0 04B#FFC4FF2000FB0022
(1763740770.133800) can0 06B#0020040080010100
(1763740770.134100) can0 20B#7CD6802A00000000
(1763740770.134350) can0 22B#0600000000000011
(1763740770.134600) can0 24B#0000000000091200
(1763740770.136650) can0 361#01C600001818A200
(1763740770.136900) can0 3A1#004100800A200000
(1763740770.137650) can0 081#410005145DC01800
(1763740770.137900) can0 0A1#18C6B10018B41818
(1763740770.138600) can0 210#0000F401AAAAAAAA
(1763740770.138800) can0 201#801000853CD80067
(1763740770.139050) can0 241#0228280000000000
(1763740770.141900) can0 0CC#410700FFDF
(1763740770.142100) can0 0AF#470018067E280000
(1763740770.143350) can0 586#15C6187FA000081E
(1763740770.143600) can0 04B#FFC5FEE000FA0022
(1763740770.143850) can0 566#0000800000000000
(1763740770.144100) can0 06B#0020040080010100
(1763740770.144350) can0 1A6#0000000000000000
(1763740770.144600) can0 159#0000000000000000
(1763740770.144850) can0 186#CB0007D700808300
(1763740770.145100) can0 166#002C002C002C002C
(1763740770.145300) can0 146#00FF0002FF000000
(1763740770.145550) can0 046#5000010080000000
(1763740770.145800) can0 20B#7CD6802900000000
(1763740770.146050) can0 22B#0600000000000011
(1763740770.146350) can0 24B#0000000000091200
(1763740770.146650) can0 361#01C600001818A200
(1763740770.146950) can0 3A1#004100800A200000
(1763740770.147650) can0 081#410005145DC01800
(1763740770.147900) can0 0A1#18C6B10018B41818
(1763740770.148600) can0 208#00003C0001C60000
(1763740770.148850) can0 201#801000853CD80067
(1763740770.149100) can0 241#0228280000000000
(1763740770.151900) can0 0CC#720700FFDF
(1763740770.152150) can0 0AF#7B0028067E280000
(1763740770.153400) can0 04B#FFC6FEA000F90022
(1763740770.153700) can0 06B#0020040080010100
(1763740770.153950) can0 20B#7CD5802A00000000
(1763740770.154200) can0 22B#0600000000000011
(1763740770.154500) can0 24B#0000000000091200
(1763740770.156700) can0 361#01C600001818A200
(1763740770.156900) can0 3A1#004100800A200000
(1763740770.157700) can0 081#410005145DC01800
(1763740770.157950) can0 0A1#18C6B10018B41818
(1763740770.158600) can0 209#0010208000081000
(1763740770.158850) can0 201#801000853CD80067
(1763740770.159100) can0 241#0228280000000000
(1763740770.161900) can0 0CC#630700FFDF
(1763740770.162100) can0 0AF#A80038067E27FF00
(1763740770.163350) can0 04B#FFC7FE6000F80022
(1763740770.163550) can0 1A6#0000000000000000
(1763740770.163800) can0 06B#0020040080010100
(1763740770.164050) can0 186#CB0007D700808300
(1763740770.164300) can0 159#0000000000000000
(1763740770.164550) can0 166#002C002C002C002C
(1763740770.164800) can0 146#00FF0004FF000000
(1763740770.165050) can0 046#5000020080000000
(1763740770.165300) can0 20B#7CD6802A00000000
(1763740770.165550) can0 22B#0600000000000011
(1763740770.165800) can0 24B#0000000000091200
(1763740770.166100) can0 56B#0008600400000000
(1763740770.166250) can0 57E#0000
(1763740770.166600) can0 203#0000003E000086CD
(1763740770.166850) can0 361#01C600001818A200
(1763740770.167100) can0 3A1#004100800A200000
(1763740770.167700) can0 081#410005145DC01800
(1763740770.167950) can0 0A1#18C6B10018B41818
(1763740770.168600) can0 210#0000F401AAAAAAAA
(1763740770.168800) can0 201#801000853CD80067
(1763740770.169050) can0 241#0228280000000000
(1763740770.171900) can0 0CC#040701FFDF
(1763740770.172100) can0 0AF#030048067E280000
(1763740770.173250) can0 04B#FFC8FE2000F70022
(1763740770.173500) can0 06B#0020040080010100
(1763740770.173750) can0 20B#7CD6802900000000
(1763740770.174050) can0 22B#0600000000000011
(1763740770.174300) can0 24B#0000000000091200
(1763740770.176750) can0 361#01C600001818A200
(1763740770.176950) can0 3A1#004100800A200000
(1763740770.177750) can0 561#0200905E00000000
(1763740770.178000) can0 081#410005145DC01800
(1763740770.178600) can0 208#00003C0001C60000
(1763740770.178850) can0 0A1#18C6B10018B41818
(1763740770.179100) can0 221#801000853CD80067
(1763740770.179300) can0 261#0229010100000000
(1763740770.179550) can0 5A1#0000000000000000
(1763740770.179800) can0 201#801000853CD80067
(1763740770.180750) can0 241#0228280000000000
(1763740770.181900) can0 0CC#150701FFDF
(1763740770.182150) can0 0AF#7D0058077E280000
(1763740770.183150) can0 04B#FFC9FDE000F60022
(1763740770.183400) can0 1A6#0000000000000000
(1763740770.183650) can0 06B#0020040080010100
(1763740770.183900) can0 186#CB0007D700808300
(1763740770.184150) can0 159#0000000000000000
(1763740770.184400) can0 166#002C002C002C002C
(1763740770.184650) can0 146#00FF0006FF000000
(1763740770.184900) can0 046#5000020080000000
(1763740770.185100) can0 20B#7CD6802A00000000
(1763740770.185400) can0 22B#0600000000000011
(1763740770.185650) can0 24B#0000000000091200
(1763740770.186750) can0 361#01C600001818A200
(1763740770.187000) can0 3A1#004100800A200000
(1763740770.187750) can0 081#410005145DC01800
(1763740770.188000) can0 0A1#18C6B10018B41818
(1763740770.188600) can0 209#0010208000081000
(1763740770.188850) can0 201#801000853CD80067
(1763740770.189100) can0 241#0228280000000000
(1763740770.189800) can0 560#0000400082000200
(1763740770.190050) can0 5E0#6000000000016101
(1763740770.191850) can0 0CC#360700FFDF
(1763740770.192100) can0 0AF#590068077E380000
(1763740770.193100) can0 04B#FFCAFDA000F50022
(1763740770.193350) can0 06B#0020040080010100
(1763740770.193600) can0 20B#7CD6802A00000000
(1763740770.193900) can0 22B#0600000000000011
(1763740770.194150) can0 24B#0000000000091200
(1763740770.196750) can0 361#01C600001818A200
(1763740770.197000) can0 3A1#004100800A200000
(1763740770.197750) can0 081#410005145DC01800
(1763740770.198000) can0 0A1#18C6B10018B41818
(1763740770.198600) can0 210#0000F401AAAAAAAA
(1763740770.198800) can0 201#801000853CD80067
(1763740770.199050) can0 241#0228280000000000
(1763740770.200800) can0 761#0202000000000000
(1763740770.201000) can0 581#005E250000260000
(1763740770.201950) can0 221#801000853CD80067
(1763740770.202150) can0 0AF#4D0078077E380000
(1763740770.202350) can0 0CC#270700FFDF
(1763740770.202600) can0 261#0229010100000000
(1763740770.203000) can0 04B#FFCBFD6000F40022
(1763740770.203250) can0 1A6#0000000000000000
(1763740770.203500) can0 06B#0020040080010100
(1763740770.203750) can0 186#CB0007D900808300
(1763740770.204000) can0 159#0000000000000000
(1763740770.204200) can0 166#002C002C002C002C
(1763740770.204450) can0 146#00FF0008FF000000
(1763740770.204700) can0 046#5000020080000000
(1763740770.204950) can0 20B#7CD6802900000000
(1763740770.205250) can0 22B#0600000000000011
(1763740770.205450) can0 24B#0000000000091200
(1763740770.206750) can0 361#01C600001818A200
(1763740770.207000) can0 3A1#004100800A200000
(1763740770.207750) can0 081#410005145DC01800
(1763740770.208000) can0 0A1#18C6B10018B41818
(1763740770.208600) can0 208#00003C0001C60000
(1763740770.208850) can0 201#801000853CD80067
(1763740770.209100) can0 241#0228280000000000
(1763740770.211900) can0 0CC#D80700FFDF
(1763740770.212100) can0 0AF#990088077E280000
(1763740770.212900) can0 04B#FFCCFD2000F30022
(1763740770.213200) can0 06B#0020040080010100
(1763740770.213450) can0 20B#7CD5802A00000000
(1763740770.213700) can0 22B#0600000000000011
(1763740770.214000) can0 24B#0000000000091200
(1763740770.216800) can0 361#01C600001818A200
(1763740770.217050) can0 3A1#004100800A200000
(1763740770.217800) can0 081#410005145DC01800
(1763740770.218000) can0 0A1#18C6B10018B41818
(1763740770.218600) can0 209#0010208000081000
(1763740770.218850) can0 201#801000853CD80067
(1763740770.219100) can0 241#0228280000000000
(1763740770.221850) can0 0CC#C90700FFDF
(1763740770.222100) can0 0AF#D90098087E180000
(1763740770.222850) can0 04B#FFCDFCE000F20022
(1763740770.223100) can0 06B#0020040080010100
(1763740770.223400) can0 159#0000000000000000
(1763740770.223650) can0 1A6#0000000000000000
(1763740770.223900) can0 186#CB0007D700808300
(1763740770.224100) can0 166#002C002C002C002C
(1763740770.224350) can0 146#00FF000AFF000000
(1763740770.224600) can0 046#5000020080000000
(1763740770.224850) can0 20B#7CD6802A00000000
(1763740770.225100) can0 22B#0600000000000011
(1763740770.225350) can0 24B#0000000000091200
(1763740770.226800) can0 361#01C600001818A200
(1763740770.227050) can0 3A1#004100800A200000
(1763740770.227800) can0 081#410005145DC01800
(1763740770.228050) can0 0A1#18C6B10018B41818
(1763740770.228600) can0 210#0000F401AAAAAAAA
(1763740770.228850) can0 201#801000853CD80067
(1763740770.229100) can0 5A1#0000000000000000
(1763740770.229850) can0 241#0228280000000000
(1763740770.230050) can0 221#801000853CD80067
(1763740770.230300) can0 261#0229010100000000
(1763740770.230800) can0 561#0200905E00000000
(1763740770.231850) can0 0CC#FA0700FFDF
(1763740770.232100) can0 0AF#9700A8097E080000
(1763740770.232800) can0 04B#FFCEFCA000F10022
(1763740770.233050) can0 06B#0020040080010100
(1763740770.233300) can0 20B#7CD6802A00000000
(1763740770.233600) can0 22B#0600000000000011
(1763740770.233850) can0 24B#0000000000091200
(1763740770.236800) can0 361#01C600001818A200
(1763740770.237050) can0 3A1#004100800A200000
(1763740770.237800) can0 081#410005145DC01800
(1763740770.238050) can0 0A1#18C6B10018B41818
(1763740770.238600) can0 208#00003C0001C60000
(1763740770.238850) can0 201#801000853CD80067
(1763740770.239100) can0 241#0228280000000000
(1763740770.241850) can0 0CC#EB0700FFDF
(1763740770.242100) can0 0AF#E900B8087E080000
(1763740770.242700) can0 04B#FFCFFC6000F00022
(1763740770.242950) can0 06B#0020040080010100
(1763740770.243250) can0 159#0000000000000000
(1763740770.243450) can0 586#15C6187F70000820
(1763740770.243700) can0 20B#7CD5802A00000000
(1763740770.243950) can0 566#0000800000000000
(1763740770.244200) can0 1A6#0000000000000000
(1763740770.244450) can0 186#CB0007D600808300
(1763740770.244650) can0 166#002C002C002C002C
(1763740770.244900) can0 146#00FF000CFF000000
(1763740770.245150) can0 046#5000020080000000
(1763740770.245400) can0 22B#0600000000000011
(1763740770.245650) can0 24B#0000000000091200
(1763740770.246850) can0 361#01C600001818A200
(1763740770.247050) can0 3A1#004100800A200000
(1763740770.247850) can0 081#410005145DC01800
(1763740770.248100) can0 0A1#18C6B10018B41818
(1763740770.248650) can0 209#0010208000081000
(1763740770.248850) can0 201#801000853CD80067
(1763740770.249100) can0 241#0228280000000000
(1763740770.251850) can0 0CC#9C0700FFDF
(1763740770.252100) can0 0AF#9D00C8087E180000
(1763740770.252600) can0 04B#FFC0002000FF0022
(1763740770.252850) can0 06B#0020040080010100
(1763740770.253150) can0 20B#7CD6802A00000000
(1763740770.253400) can0 22B#0600000000000011
(1763740770.253650) can0 24B#0000000000091200
(1763740770.256850) can0 361#01C600001818A200
(1763740770.257100) can0 3A1#004100800A200000
(1763740770.257850) can0 081#410005145DC01800
(1763740770.258100) can0 0A1#18C6B10018B41818
(1763740770.258600) can0 210#0000F401AAAAAAAA
(1763740770.258900) can0 201#801000853CD80067
(1763740770.259100) can0 241#0228280000000000
(1763740770.261850) can0 0CC#8D0700FFDF
(1763740770.262100) can0 0AF#F500D8077E180000
(1763740770.262550) can0 04B#FFC1FFE000FE0022
(1763740770.262850) can0 06B#0020040080010100
(1763740770.263100) can0 159#0000000000000000
(1763740770.263350) can0 20B#7CD6802A00000000
(1763740770.263600) can0 1A6#0000000000000000
(1763740770.263850) can0 186#CB0007D700808300
(1763740770.264100) can0 166#002C002C002C002C
(1763740770.264350) can0 146#00FF000EFF000000
(1763740770.264600) can0 046#5000020080000000
(1763740770.264850) can0 22B#0600000000000011
(1763740770.265100) can0 24B#0000000000091200
(1763740770.265350) can0 56B#0008600400000000
(1763740770.265500) can0 57E#0000
(1763740770.266550) can0 203#0000003E000086CD
(1763740770.266900) can0 361#01C600001818A200
(1763740770.267100) can0 3A1#004100800A200000
(1763740770.267900) can0 081#410005145DC01800
(1763740770.268100) can0 0A1#18C6B10018B41818
(1763740770.268600) can0 208#00003C0001C60000
(1763740770.268900) can0 201#801000853CD80067
(1763740770.269150) can0 241#0228280000000000
(1763740770.271850) can0 0CC#BE0700FFDF
(1763740770.272100) can0 0AF#E100E8077E280000
(1763740770.272500) can0 04B#FFC2FFA000FD0022
(1763740770.272750) can0 06B#0020040080010100
(1763740770.273000) can0 20B#7CD6802A00000000
(1763740770.273300) can0 22B#0600000000000011
(1763740770.273550) can0 24B#0000000000091200
(1763740770.276900) can0 361#01C600001818A200
(1763740770.277150) can0 3A1#004100800A200000
(1763740770.277900) can0 561#0200905E00000000
(1763740770.278150) can0 081#410005145DC01800
(1763740770.278650) can0 209#0010208000081000
(1763740770.278900) can0 0A1#18C6B10018B41818
(1763740770.279150) can0 221#801000853CD80067
(1763740770.279400) can0 261#0229010100000000
(1763740770.279650) can0 5A1#0000000000000000
(1763740770.279900) can0 201#801000853CD80067
(1763740770.280150) can0 241#0228280000000000
(1763740770.281850) can0 0CC#AF0700FFDF
(1763740770.282100) can0 0AF#9F00F8067E280000
(1763740770.282400) can0 04B#FFC3FF6000FC0022
(1763740770.282700) can0 06B#0020040080010100
(1763740770.282950) can0 159#0000000000000000
(1763740770.283200) can0 20B#7CD6802A00000000
(1763740770.283450) can0 1A6#0000000000000000
(1763740770.283700) can0 186#CB0007D700808300
(1763740770.283950) can0 166#002C002C002C002C
(1763740770.284200) can0 146#00FF0000FF000000
(1763740770.284400) can0 046#5000010080000000
(1763740770.284650) can0 22B#0600000000000011
(1763740770.284950) can0 24B#0000000000091200
(1763740770.286900) can0 361#01C600001818A200
(1763740770.287150) can0 3A1#004100800A200000
(1763740770.287900) can0 081#410005145DC01800
(1763740770.288150) can0 0A1#18C6B10018B41818
(1763740770.288400) can0 560#0000400082000200
(1763740770.288600) can0 210#0000F401AAAAAAAA
(1763740770.288850) can0 5E0#6000000000016101
(1763740770.289100) can0 201#801000853CD80067
(1763740770.289350) can0 241#0228280000000000
(1763740770.291850) can0 0CC#500700FFDF
(1763740770.292100) can0 0AF#530008067E280000
(1763740770.292350) can0 04B#FFC4FF2000FB0022
(1763740770.292600) can0 06B#0020040080010100
(1763740770.292850) can0 20B#7CD6802A00000000
(1763740770.293100) can0 22B#0600000000000011
(1763740770.293400) can0 24B#0000000000091200
(1763740770.296300) can0 6C0#8772A97040209843
(1763740770.296900) can0 361#01C600001818A200
(1763740770.297150) can0 3A1#004100800A200000
(1763740770.297900) can0 081#410005145DC01800
(1763740770.298150) can0 0A1#18C6B10018B41818
(1763740770.298600) can0 208#00003C0001C60000
(1763740770.298900) can0 201#801000853CD80067
(1763740770.299150) can0 241#0228280000000000
(1763740770.300950) can0 761#0202000000000000
(1763740770.301200) can0 221#801000853CD80067
(1763740770.301400) can0 261#0229010100000000
(1763740770.301650) can0 581#005E250000260000
(1763740770.301850) can0 0CC#410700FFDF
(1763740770.302100) can0 0AF#F90018057E280000
(1763740770.302350) can0 04B#FFC5FEE000FA0022
(1763740770.302600) can0 06B#0020040080010100
(1763740770.302850) can0 159#0000000000000000
(1763740770.303150) can0 20B#7CD6812B00000000
(1763740770.303400) can0 22B#0600000000000011
(1763740770.303600) can0 1A6#0000000000000000
(1763740770.303850) can0 186#CB0007D700808300
(1763740770.304100) can0 166#002C002C002C002C
(1763740770.304350) can0 146#00FF0002FF000000
(1763740770.304600) can0 046#5000020080000000
(1763740770.304850) can0 24B#0000000000091200
(1763740770.306650) can0 56C#00
(1763740770.306950) can0 361#01C600001818A200
(1763740770.307200) can0 3A1#004100800A200000
(1763740770.307950) can0 081#410005145DC01800
(1763740770.308150) can0 0A1#18C6B10018B41818
(1763740770.308600) can0 209#0010208000081000
(1763740770.308950) can0 201#801000853CD80067
(1763740770.309200) can0 241#0228280000000000
(1763740770.311850) can0 0CC#720700FFDF
(1763740770.312050) can0 0AF#B70028047E380000
(1763740770.312300) can0 04B#FFC6FEA000F90022
(1763740770.312600) can0 06B#0020040080010100
(1763740770.312850) can0 20B#7CD6802900000000
(1763740770.313100) can0 22B#0600000000000011
(1763740770.313400) can0 24B#0000000000091200
(1763740770.316950) can0 361#01C600001818A200
(1763740770.317200) can0 3A1#004100800A200000
(1763740770.317950) can0 081#410005145DC01800
(1763740770.318200) can0 0A1#18C6B10018B41818
(1763740770.318600) can0 210#0000F401AAAAAAAA
(1763740770.318950) can0 201#801000853CD80067
(1763740770.319200) can0 241#0228280000000000
(1763740770.321850) can0 0CC#630700FFDF
(1763740770.322100) can0 04B#FFC7FE6000F80022
(1763740770.322350) can0 0AF#C90038057E380000
(1763740770.322550) can0 06B#0020040080010100
(1763740770.322850) can0 159#0000000000000000
(1763740770.323100) can0 20B#7CD6802A00000000
(1763740770.323350) can0 22B#0600000000000011
(1763740770.323600) can0 1A6#0000000000000000
(1763740770.323850) can0 186#CB0007D900808300
(1763740770.324100) can0 166#002C002C002C002C
(1763740770.324350) can0 146#00FF0004FF000000
(1763740770.324600) can0 046#5000020080000000
(1763740770.324850) can0 24B#0000000000091200
(1763740770.326950) can0 361#01C600001818A200
(1763740770.327200) can0 3A1#004100800A200000
(1763740770.327950) can0 081#410005145DC01800
(1763740770.328200) can0 0A1#18C6B10018B41818
(1763740770.328600) can0 208#00003C0001C60000
(1763740770.329000) can0 5A1#0000000000000000
(1763740770.329200) can0 201#801000853CD80067
(1763740770.330000) can0 241#0228280000000000
(1763740770.330950) can0 561#0200905E00000000
(1763740770.331200) can0 221#801000853CD80067
(1763740770.331450) can0 261#0229010100000000
(1763740770.331850) can0 0CC#140700FFDF
(1763740770.332050) can0 04B#FFC8FE2000F70022
(1763740770.332300) can0 0AF#A50048057E380000
(1763740770.332550) can0 06B#0020040080010100
(1763740770.332800) can0 20B#7CD6802B00000000
(1763740770.333050) can0 22B#0600000000000011
(1763740770.333350) can0 24B#0000000000091200
(1763740770.337000) can0 361#01C600001818A200
(1763740770.337200) can0 3A1#004100800A200000
(1763740770.338000) can0 081#410005145DC01800
(1763740770.338250) can0 0A1#18C6B10018B41818
(1763740770.338600) can0 209#0010208000081000
(1763740770.339000) can0 201#801000853CD80067
(1763740770.339250) can0 241#0228280000000000
(1763740770.341850) can0 0CC#050700FFDF
(1763740770.342050) can0 04B#FFC9FDE000F60022
(1763740770.342300) can0 0AF#0F0058067E380000
(1763740770.342550) can0 06B#0020040080010100
(1763740770.342850) can0 159#0000000000000000
(1763740770.343100) can0 20B#7CD6802900000000
(1763740770.343350) can0 22B#0600000000000011
(1763740770.343600) can0 586#15C6187FB000081D
(1763740770.343850) can0 24B#0000000000091200
(1763740770.344100) can0 566#0000800000000000
(1763740770.344350) can0 1A6#0000000000000000
(1763740770.344550) can0 186#CB0007D900808300
(1763740770.344800) can0 166#002C002C002C002C
(1763740770.345050) can0 146#00FF0006FF000000
(1763740770.345300) can0 046#5000020080000000
(1763740770.347000) can0 361#01C600001818A200
(1763740770.347250) can0 3A1#004100800A200000
(1763740770.348000) can0 081#410005145DC01800
(1763740770.348250) can0 0A1#18C6B10018B41818
(1763740770.348600) can0 210#0000F401AAAAAAAA
(1763740770.349000) can0 201#801000853CD80067
(1763740770.349250) can0 241#0228280000000000
(1763740770.351800) can0 04B#FFCAFDA000F50022
(1763740770.352000) can0 0CC#360700FFDF
(1763740770.352250) can0 06B#0020040080010100
(1763740770.352500) can0 0AF#410068077E280000
(1763740770.352700) can0 20B#7CD5802A00000000
(1763740770.353000) can0 22B#0600000000000011
(1763740770.353250) can0 24B#0000000000091200
(1763740770.357050) can0 361#01C600001818A200
(1763740770.357250) can0 3A1#004100800A200000
(1763740770.358050) can0 081#410005145DC01800
(1763740770.358250) can0 0A1#18C6B10018B41818
(1763740770.358600) can0 208#00003C0001C60000
(1763740770.359000) can0 201#801000853CD80067
(1763740770.359250) can0 241#0228280000000000
(1763740770.361750) can0 04B#FFCBFD6000F40022
(1763740770.361950) can0 0CC#270700FFDF
(1763740770.362200) can0 06B#0020040080010100
(1763740770.362400) can0 0AF#4D0078077E380000
(1763740770.362650) can0 159#0000000000000000
(1763740770.362900) can0 20B#7CD6802A00000000
(1763740770.363200) can0 22B#0600000000000011
(1763740770.363450) can0 1A6#0000000000000000
(1763740770.363700) can0 186#CB0007D700808300
(1763740770.363900) can0 166#002C002C002C002C
(1763740770.364150) can0 146#00FF0008FF000000
(1763740770.364400) can0 046#5000020080000000
(1763740770.364650) can0 24B#0000000000091200
(1763740770.364900) can0 56B#0008600400000000
(1763740770.365100) can0 57E#0000
(1763740770.366600) can0 203#0000003E000086CD
(1763740770.367050) can0 361#01C600001818A200
(1763740770.367300) can0 3A1#004100800A200000
(1763740770.368050) can0 081#410005145DC01800
(1763740770.368300) can0 0A1#18C6B10018B41818
(1763740770.368600) can0 209#0010208000081000
(1763740770.369050) can0 201#801000853CD80067
(1763740770.369300) can0 241#0228280000000000
(1763740770.371650) can0 04B#FFCCFD2000F30022
(1763740770.371850) can0 0CC#D80700FFDF
(1763740770.372100) can0 06B#0020040080010100
(1763740770.372350) can0 0AF#CD0088077E380100
(1763740770.372550) can0 20B#7BD6802900000000
(1763740770.372850) can0 22B#0600000000000011
(1763740770.373100) can0 24B#0000000000091200
(1763740770.377050) can0 361#01C600001818A200
(1763740770.377300) can0 3A1#004100800A200000
(1763740770.378050) can0 561#0200905E00000000
(1763740770.378250) can0 081#410005145DC01800
(1763740770.378600) can0 210#0000F401AAAAAAAA
(1763740770.379050) can0 0A1#18C6B10018B41818
(1763740770.379300) can0 221#801000853CD80067
(1763740770.379500) can0 261#0229010100000000
(1763740770.379800) can0 5A1#0000000000000000
(1763740770.380050) can0 201#801000853CD80067
(1763740770.380300) can0 241#0228280000000000
(1763740770.381600) can0 04B#FFCDFCE000F20022
(1763740770.381850) can0 06B#0020040080010100
(1763740770.382000) can0 0CC#C90700FFDF
(1763740770.382250) can0 0AF#C10098077E280100
(1763740770.382500) can0 159#0000000000000000
(1763740770.382800) can0 20B#7CD5802B00000000
(1763740770.383050) can0 22B#0600000000000011
(1763740770.383300) can0 24B#0000000000091200
(1763740770.383550) can0 1A6#0000000000000000
(1763740770.383800) can0 186#CB0007D900808300
(1763740770.384050) can0 166#002C002C002C002C
(1763740770.384300) can0 146#00FF000AFF000000
(1763740770.384500) can0 046#5000020080000000
(1763740770.386400) can0 560#0000400082000200
(1763740770.386700) can0 5E0#6000000000016101
(1763740770.387050) can0 361#01C600001818A200
(1763740770.387300) can0 3A1#004100800A200000
(1763740770.388050) can0 081#410005145DC01800
(1763740770.388300) can0 0A1#18C6B10018B41818
(1763740770.388600) can0 208#00003C0001C60000
(1763740770.389050) can0 201#801000853CD80067
(1763740770.389300) can0 241#0228280000000000
(1763740770.391500) can0 04B#FFCEFCA000F10022
(1763740770.391750) can0 06B#0020040080010100
(1763740770.391950) can0 0CC#FA0700FFDF
(1763740770.392200) can0 0AF#D500A8077E180100
(1763740770.392450) can0 20B#7CD6802A00000000
(1763740770.392700) can0 22B#0600000000000011
(1763740770.392950) can0 24B#0000000000091200
(1763740770.397050) can0 361#01C600001818A200
(1763740770.397300) can0 3A1#004100800A200000
(1763740770.398100) can0 081#410005145DC01800
(1763740770.398300) can0 0A1#18C6B10018B41818
(1763740770.398600) can0 209#0010208000081000
(1763740770.399100) can0 201#801000853CD80067
(1763740770.399300) can0 241#0228280000000000
(1763740770.401100) can0 761#0202000000000000
(1763740770.401350) can0 221#801000853CD80067
(1763740770.401600) can0 04B#FFCFFC6000F00022
(1763740770.401800) can0 261#0229010100000000
(1763740770.402050) can0 06B#0020040080010100
(1763740770.402300) can0 0AF#8D00B8077E180000
(1763740770.402500) can0 0CC#EB0700FFDF
(1763740770.402750) can0 159#0000000000000000
(1763740770.403000) can0 581#005E250000260000
(1763740770.403250) can0 20B#7CD6802900000000
(1763740770.403450) can0 1A6#0000000000000000
(1763740770.403700) can0 186#CB0007D700808300
(1763740770.403950) can0 166#002C002C002C002C
(1763740770.404150) can0 146#00FF000CFF000000
(1763740770.404400) can0 046#5000020080000000
(1763740770.404700) can0 22B#0600000000000011
(1763740770.404950) can0 24B#0000000000091200
(1763740770.407100) can0 361#01C600001818A200
(1763740770.407350) can0 3A1#004100800A200000
(1763740770.408100) can0 081#410005145DC01800
(1763740770.408350) can0 0A1#18C6B10018B41818
(1763740770.408600) can0 210#0000F401AAAAAAAA
(1763740770.408950) can0 56F#00
(1763740770.409200) can0 201#801000853CD80067
(1763740770.409400) can0 241#0228280000000000
(1763740770.411350) can0 04B#FFC0002000FF0022
(1763740770.411600) can0 06B#0020040080010100
(1763740770.411850) can0 20B#7CD6802A00000000
(1763740770.412100) can0 0AF#9D00C8087E180000
(1763740770.412300) can0 0CC#9C0700FFDF
(1763740770.412550) can0 22B#0600000000000011
(1763740770.412800) can0 24B#0000000000091200
(1763740770.417100) can0 361#01C600001818A200
(1763740770.417350) can0 3A1#004100800A200000
(1763740770.418100) can0 081#410005145DC01800
(1763740770.418350) can0 0A1#18C6B10018B41818
(1763740770.418600) can0 208#00003C0001C60000
(1763740770.419150) can0 201#801000853CD80067
(1763740770.419350) can0 241#0228280000000000
(1763740770.421250) can0 04B#FFC1FFE000FE0022
(1763740770.421550) can0 06B#0020040080010100
(1763740770.421800) can0 159#0000000000000000
(1763740770.422000) can0 0CC#8D0700FFDF
(1763740770.422200) can0 0AF#A100D8087E280000
(1763740770.422450) can0 20B#7CD6802A00000000
(1763740770.422750) can0 22B#0600000000000011
(1763740770.423000) can0 24B#0000000000091200
(1763740770.423350) can0 1A6#0000000000000000
(1763740770.423600) can0 186#CB0007D700808300
(1763740770.423850) can0 166#002C002C002C002C
(1763740770.424050) can0 146#00FF000EFF000000
(1763740770.424300) can0 046#5000020080000000
(1763740770.427100) can0 361#01C600001818A200
(1763740770.427350) can0 3A1#004100800A200000
(1763740770.428150) can0 081#410005145DC01800
(1763740770.428400) can0 0A1#18C6B10018B41818
(1763740770.428600) can0 209#0010208000081000
(1763740770.429150) can0 5A1#0000000000000000
(1763740770.429400) can0 201#801000853CD80067
(1763740770.430150) can0 241#0228280000000000
(1763740770.430400) can0 221#801000853CD80067
(1763740770.430650) can0 261#0229010100000000
(1763740770.431150) can0 561#0200905E00000000
(1763740770.431350) can0 04B#FFC2FFA000FD0022
(1763740770.431650) can0 06B#0020040080010100
(1763740770.431800) can0 0CC#BE0700FFDF
(1763740770.432050) can0 20B#7CD5802A00000000
(1763740770.432300) can0 0AF#8500E8087E380000
(1763740770.432550) can0 22B#0600000000000011
(1763740770.432850) can0 24B#0000000000091200
(1763740770.437150) can0 361#01C600001818A200
(1763740770.437400) can0 3A1#004100800A200000
(1763740770.438150) can0 081#410005145DC01800
(1763740770.438400) can0 0A1#18C6B10018B41818
(1763740770.438650) can0 210#0000F401AAAAAAAA
(1763740770.439150) can0 201#801000853CD80067
(1763740770.439400) can0 241#0228280000000000
(1763740770.441100) can0 04B#FFC3FF6000FC0022
(1763740770.441400) can0 06B#0020040080010100
(1763740770.441650) can0 159#0000000000000000
(1763740770.441850) can0 0CC#AF0700FFDF
(1763740770.442100) can0 20B#7CD6802A00000000
(1763740770.442300) can0 0AF#9100F8087E380000
(1763740770.442550) can0 22B#0600000000000011
(1763740770.442800) can0 24B#0000000000091200
(1763740770.443250) can0 586#15C6187F8000081D
(1763740770.443500) can0 566#0000800000000000
(1763740770.443750) can0 1A6#0000000000000000
(1763740770.444000) can0 186#CB0007D900808300
(1763740770.444250) can0 166#002C002C002C002C
(1763740770.444500) can0 146#00FF0000FF000000
(1763740770.444750) can0 046#5000010080000000
(1763740770.447150) can0 361#01C600001818A200
(1763740770.447400) can0 3A1#004100800A200000
(1763740770.448200) can0 081#410005145DC01800
(1763740770.448400) can0 0A1#18C6B10018B41818
(1763740770.448650) can0 208#00003C0001C60000
(1763740770.449150) can0 201#801000853CD80067
(1763740770.449400) can0 241#0228280000000000
(1763740770.451000) can0 04B#FFC4FF2000FB0022
(1763740770.451300) can0 06B#0020040080010100
(1763740770.451550) can0 20B#7CD6802900000000
(1763740770.451800) can0 22B#0600000000000011
(1763740770.452000) can0 0CC#500700FFDF
(1763740770.452250) can0 0AF#150008087E480000
(1763740770.452500) can0 24B#0000000000091200
(1763740770.457200) can0 361#01C600001818A200
(1763740770.457450) can0 3A1#004100800A200000
(1763740770.458150) can0 081#410005145DC01800
(1763740770.458400) can0 0A1#18C6B10018B41818
(1763740770.458650) can0 209#0010208000081000
(1763740770.459200) can0 201#801000853CD80067
(1763740770.459450) can0 241#0228280000000000
(1763740770.460950) can0 04B#FFC5FEE000FA0022
(1763740770.461200) can0 06B#0020040080010100
(1763740770.461500) can0 159#0000000000000000
(1763740770.461750) can0 20B#7CD5802A00000000
(1763740770.461900) can0 0CC#410700FFDF
(1763740770.462150) can0 0AF#490018087E380000
(1763740770.462400) can0 22B#0600000000000011
(1763740770.462700) can0 24B#0000000000091200
(1763740770.462950) can0 56B#0008600400000000
(1763740770.463100) can0 57E#0000
(1763740770.463350) can0 1A6#0000000000000000
(1763740770.463600) can0 186#CB0007DB00808300
(1763740770.463850) can0 166#002C002C002C002C
(1763740770.464100) can0 146#00FF0002FF000000
(1763740770.464300) can0 046#5000020080000000
(1763740770.466550) can0 203#0000003E000086CD
(1763740770.467200) can0 361#01C600001818A200
(1763740770.467450) can0 3A1#004100800A200000
(1763740770.468200) can0 081#410005145DC01800
(1763740770.468450) can0 0A1#18C6B10018B41818
(1763740770.468650) can0 210#0000F401AAAAAAAA
(1763740770.469200) can0 201#801000853CD80067
(1763740770.469450) can0 241#0228280000000000
(1763740770.470850) can0 04B#FFC6FEA000F90022
(1763740770.471150) can0 06B#0020040080010100
(1763740770.471400) can0 20B#7CD6812B00000000
(1763740770.471700) can0 22B#0600000000000011
(1763740770.471850) can0 0CC#720700FFDF
(1763740770.472100) can0 0AF#750028087E380000
(1763740770.472300) can0 24B#0000000000091200
(1763740770.477200) can0 361#01C600001818A200
(1763740770.477450) can0 3A1#004100800A200000
(1763740770.478200) can0 561#0200905E00000000
(1763740770.478450) can0 081#410005145DC01800
(1763740770.478700) can0 208#00003C0001C60000
(1763740770.479200) can0 0A1#18C6B10018B41818
(1763740770.479450) can0 221#801000853CD80067
(1763740770.479700) can0 261#0229010100000000
(1763740770.479950) can0 5A1#0000000000000000
(1763740770.480200) can0 201#801000853CD80067
(1763740770.480450) can0 241#0228280000000000
(1763740770.480800) can0 04B#FFC7FE6000F80022
(1763740770.481050) can0 06B#0020040080010100
(1763740770.481300) can0 159#0000000000000000
(1763740770.481550) can0 20B#7CD6802900000000
(1763740770.481850) can0 22B#0600000000000011
(1763740770.482100) can0 0AF#050038077E280000
(1763740770.482250) can0 0CC#630700FFDF
(1763740770.482500) can0 24B#0000000000091200
(1763740770.483350) can0 1A6#0000000000000000
(1763740770.483600) can0 186#CB0007D900800300
(1763740770.483850) can0 166#002C002C002C002C
(1763740770.484050) can0 146#00FF0004FF000000
(1763740770.484300) can0 046#5000020080000000
(1763740770.484750) can0 560#0000400082000200
(1763740770.485000) can0 5E0#6000000000016101
(1763740770.487200) can0 361#01C600001818A200
(1763740770.487450) can0 3A1#004100800A200000
(1763740770.488250) can0 081#410005145DC01800
(1763740770.488450) can0 0A1#18C6B10018B41818
(1763740770.488700) can0 209#0010208000081000
(1763740770.489250) can0 201#801000853CD80067
(1763740770.489450) can0 241#0228280000000000
(1763740770.490700) can0 04B#FFC8FE2000F70022
(1763740770.490950) can0 06B#0020040080010100
(1763740770.491250) can0 20B#7CD5812A00000000
(1763740770.491500) can0 22B#0600000000000011
(1763740770.491750) can0 24B#0000000000091200
(1763740770.491950) can0 0CC#140700FFDF
(1763740770.492200) can0 0AF#690048077E280000
(1763740770.497250) can0 361#01C600001818A200
(1763740770.497500) can0 3A1#004100800A200000
(1763740770.498250) can0 081#410005145DC01800
(1763740770.498450) can0 0A1#18C6B10018B41818
(1763740770.498700) can0 210#0000F401AAAAAAAA
(1763740770.499250) can0 201#801000853CD80067
(1763740770.499500) can0 241#0228280000000000
(1763740770.500650) can0 04B#FFC9FDE000F60022
(1763740770.500900) can0 06B#0020040080010100
(1763740770.501150) can0 159#0000000000000000
(1763740770.501400) can0 581#005E250000260000
(1763740770.501650) can0 20B#7CD6802A00000000
(1763740770.501850) can0 0CC#050700FFDF
(1763740770.502100) can0 221#801000853CD80067
(1763740770.502300) can0 0AF#7D0058077E280000
(1763740770.502550) can0 22B#0600000000000011
(1763740770.502800) can0 261#0229010100000000
(1763740770.503050) can0 24B#0000000000091200
(1763740770.503300) can0 1A6#0000000000000000
(1763740770.503550) can0 186#CB0007D700800300
(1763740770.503750) can0 166#002C002C002C002C
(1763740770.504000) can0 146#00FF0006FF000000
(1763740770.504250) can0 046#5000020080000000
(1763740770.504500) can0 761#0202000000000000
(1763740770.507250) can0 361#01C600001818A200
(1763740770.507500) can0 3A1#004100800A200000
(1763740770.508250) can0 081#410005145DC01800
(1763740770.508500) can0 0A1#18C6B10018B41818
(1763740770.508750) can0 208#00003C0001C60000
(1763740770.509300) can0 201#801000853CD80067
(1763740770.509500) can0 241#0228280000000000
(1763740770.510550) can0 04B#FFCAFDA000F50022
